
**********************************************2025-12-05 15:03:58.386

TxPackets: 12025-12-05 15:03:58.386 | Tx : 01 04 00 17 00 04 41 cd
RxPackets: 02025-12-05 15:03:58.386 | Rx : 01 04 08 df 02 00 00 18 00 00 00 4c 71
TxPackets: 22025-12-05 15:04:12.620 | Tx : 01 04 00 17 00 04 41 cd
RxPackets: 12025-12-05 15:04:12.620 | Rx : 01 04 08 ed 02 00 00 18 00 00 00 ce bc

**********************************************2025-12-05 15:06:03.145

TxPackets: 12025-12-05 15:06:03.145 | Tx : 01 04 00 00 00 02 71 cb
RxPackets: 02025-12-05 15:06:03.145 | Rx : 01 04 04 00 00 00 00 fb 84
TxPackets: 22025-12-05 15:06:08.417 | Tx : 01 04 00 00 00 08 f1 cc
RxPackets: 12025-12-05 15:06:08.417 | Rx : 01 04 10 00 00 00 00 00 00 00 00 00 00 00 00 00 00 00 00 55 2c

**********************************************2025-12-05 15:06:10.130

TxPackets: 32025-12-05 15:06:10.130 | Tx : 01 04 00 00 00 08 f1 cc
RxPackets: 22025-12-05 15:06:10.130 | Rx : 01 04 10 00 00 00 00 00 00 00 00 00 00 00 00 00 00 00 00 55 2c
TxPackets: 42025-12-05 15:06:11.186 | Tx : 01 04 00 00 00 08 f1 cc
RxPackets: 32025-12-05 15:06:11.186 | Rx : 01 04 10 00 00 00 00 00 00 00 00 00 00 00 00 00 00 00 00 55 2c

**********************************************2025-12-05 15:06:12.124

TxPackets: 52025-12-05 15:06:12.124 | Tx : 01 04 00 00 00 08 f1 cc
RxPackets: 42025-12-05 15:06:12.124 | Rx : 01 04 10 00 00 00 00 00 00 00 00 00 00 00 00 00 00 00 00 55 2c
TxPackets: 62025-12-05 15:06:15.911 | Tx : 01 04 00 00 00 04 f1 c9
RxPackets: 52025-12-05 15:06:15.911 | Rx : 01 04 08 00 00 00 00 00 00 00 00 24 0d

**********************************************2025-12-05 15:06:28.864

TxPackets: 72025-12-05 15:06:28.864 | Tx : 01 04 00 00 00 04 f1 c9
RxPackets: 62025-12-05 15:06:28.864 | Rx : 01 04 08 00 00 00 00 00 00 00 00 24 0d
TxPackets: 82025-12-05 15:06:48.645 | Tx : 01 04 00 00 00 04 f1 c9
RxPackets: 72025-12-05 15:06:48.645 | Rx : 01 04 08 00 00 00 00 00 00 00 00 24 0d

**********************************************2025-12-05 15:06:53.685

TxPackets: 92025-12-05 15:06:53.685 | Tx : 01 04 00 00 00 04 f1 c9
RxPackets: 82025-12-05 15:06:53.685 | Rx : 01 04 08 00 00 00 00 00 00 00 00 24 0d
TxPackets: 102025-12-05 15:06:54.706 | Tx : 01 04 00 00 00 04 f1 c9
RxPackets: 92025-12-05 15:06:54.706 | Rx : 01 04 08 00 00 00 00 00 00 00 00 24 0d

**********************************************2025-12-05 15:06:55.225

TxPackets: 112025-12-05 15:06:55.225 | Tx : 01 04 00 00 00 04 f1 c9
RxPackets: 102025-12-05 15:06:55.225 | Rx : 01 04 08 00 00 00 00 00 00 00 00 24 0d
TxPackets: 122025-12-05 15:06:55.746 | Tx : 01 04 00 00 00 04 f1 c9
RxPackets: 112025-12-05 15:06:55.746 | Rx : 01 04 08 00 00 00 00 00 00 00 00 24 0d

**********************************************2025-12-05 15:06:56.284

TxPackets: 132025-12-05 15:06:56.284 | Tx : 01 04 00 00 00 04 f1 c9
RxPackets: 122025-12-05 15:06:56.284 | Rx : 01 04 08 00 00 00 00 00 00 00 00 24 0d
TxPackets: 142025-12-05 15:06:56.806 | Tx : 01 04 00 00 00 04 f1 c9
RxPackets: 132025-12-05 15:06:56.806 | Rx : 01 04 08 00 00 00 00 00 00 00 00 24 0d

**********************************************2025-12-05 15:06:57.326

TxPackets: 152025-12-05 15:06:57.325 | Tx : 01 04 00 00 00 04 f1 c9
RxPackets: 142025-12-05 15:06:57.326 | Rx : 01 04 08 00 00 00 00 00 00 00 00 24 0d
TxPackets: 162025-12-05 15:06:57.846 | Tx : 01 04 00 00 00 04 f1 c9
RxPackets: 152025-12-05 15:06:57.846 | Rx : 01 04 08 00 00 00 00 00 00 00 00 24 0d

**********************************************2025-12-05 15:06:58.366

TxPackets: 172025-12-05 15:06:58.366 | Tx : 01 04 00 00 00 04 f1 c9
RxPackets: 162025-12-05 15:06:58.366 | Rx : 01 04 08 00 00 00 00 00 00 00 00 24 0d
TxPackets: 182025-12-05 15:06:58.886 | Tx : 01 04 00 00 00 04 f1 c9
RxPackets: 172025-12-05 15:06:58.886 | Rx : 01 04 08 00 00 00 00 00 00 00 00 24 0d

**********************************************2025-12-05 15:06:59.406

TxPackets: 192025-12-05 15:06:59.406 | Tx : 01 04 00 00 00 04 f1 c9
RxPackets: 182025-12-05 15:06:59.406 | Rx : 01 04 08 00 00 00 00 00 00 00 00 24 0d
TxPackets: 202025-12-05 15:06:59.926 | Tx : 01 04 00 00 00 04 f1 c9
RxPackets: 192025-12-05 15:06:59.926 | Rx : 01 04 08 00 00 00 00 00 00 00 00 24 0d

**********************************************2025-12-05 15:07:00.446

TxPackets: 212025-12-05 15:07:00.446 | Tx : 01 04 00 00 00 04 f1 c9
RxPackets: 202025-12-05 15:07:00.446 | Rx : 01 04 08 00 00 00 00 00 00 00 00 24 0d
TxPackets: 222025-12-05 15:07:00.965 | Tx : 01 04 00 00 00 04 f1 c9
RxPackets: 212025-12-05 15:07:00.965 | Rx : 01 04 08 00 00 00 00 00 00 00 00 24 0d

**********************************************2025-12-05 15:07:01.488

TxPackets: 232025-12-05 15:07:01.488 | Tx : 01 04 00 00 00 04 f1 c9
RxPackets: 222025-12-05 15:07:01.488 | Rx : 01 04 08 00 00 00 00 00 00 00 00 24 0d
TxPackets: 242025-12-05 15:07:02.006 | Tx : 01 04 00 00 00 04 f1 c9
RxPackets: 232025-12-05 15:07:02.006 | Rx : 01 04 08 00 00 00 00 00 00 00 00 24 0d

**********************************************2025-12-05 15:07:02.545

TxPackets: 252025-12-05 15:07:02.545 | Tx : 01 04 00 00 00 04 f1 c9
RxPackets: 242025-12-05 15:07:02.545 | Rx : 01 04 08 00 00 00 00 00 00 00 00 24 0d
TxPackets: 262025-12-05 15:07:03.066 | Tx : 01 04 00 00 00 04 f1 c9
RxPackets: 252025-12-05 15:07:03.066 | Rx : 01 04 08 00 00 00 00 00 00 00 00 24 0d

**********************************************2025-12-05 15:07:03.585

TxPackets: 272025-12-05 15:07:03.585 | Tx : 01 04 00 00 00 04 f1 c9
RxPackets: 262025-12-05 15:07:03.585 | Rx : 01 04 08 00 00 00 00 00 00 00 00 24 0d
TxPackets: 282025-12-05 15:07:04.106 | Tx : 01 04 00 00 00 04 f1 c9
RxPackets: 272025-12-05 15:07:04.106 | Rx : 01 04 08 00 00 00 00 00 00 00 00 24 0d

**********************************************2025-12-05 15:07:04.625

TxPackets: 292025-12-05 15:07:04.625 | Tx : 01 04 00 00 00 04 f1 c9
RxPackets: 282025-12-05 15:07:04.625 | Rx : 01 04 08 00 00 00 00 00 00 00 00 24 0d
TxPackets: 302025-12-05 15:07:05.145 | Tx : 01 04 00 00 00 04 f1 c9
RxPackets: 292025-12-05 15:07:05.145 | Rx : 01 04 08 00 00 00 00 00 00 00 00 24 0d

**********************************************2025-12-05 15:07:05.666

TxPackets: 312025-12-05 15:07:05.666 | Tx : 01 04 00 00 00 04 f1 c9
RxPackets: 302025-12-05 15:07:05.666 | Rx : 01 04 08 00 00 00 00 00 00 00 00 24 0d
TxPackets: 322025-12-05 15:07:06.188 | Tx : 01 04 00 00 00 04 f1 c9
RxPackets: 312025-12-05 15:07:06.188 | Rx : 01 04 08 00 00 00 00 00 00 00 00 24 0d

**********************************************2025-12-05 15:07:06.708

TxPackets: 332025-12-05 15:07:06.708 | Tx : 01 04 00 00 00 04 f1 c9
RxPackets: 322025-12-05 15:07:06.708 | Rx : 01 04 08 00 00 00 00 00 00 00 00 24 0d
TxPackets: 342025-12-05 15:07:07.236 | Tx : 01 04 00 00 00 04 f1 c9
RxPackets: 332025-12-05 15:07:07.236 | Rx : 01 04 08 00 00 00 00 00 00 00 00 24 0d

**********************************************2025-12-05 15:07:07.755

TxPackets: 352025-12-05 15:07:07.755 | Tx : 01 04 00 00 00 04 f1 c9
RxPackets: 342025-12-05 15:07:07.755 | Rx : 01 04 08 00 00 00 00 00 00 00 00 24 0d
TxPackets: 362025-12-05 15:07:08.276 | Tx : 01 04 00 00 00 04 f1 c9
RxPackets: 352025-12-05 15:07:08.276 | Rx : 01 04 08 00 00 00 00 00 00 00 00 24 0d

**********************************************2025-12-05 15:07:08.806

TxPackets: 372025-12-05 15:07:08.806 | Tx : 01 04 00 00 00 04 f1 c9
RxPackets: 362025-12-05 15:07:08.806 | Rx : 01 04 08 00 00 00 00 00 00 00 00 24 0d
TxPackets: 382025-12-05 15:07:09.326 | Tx : 01 04 00 00 00 04 f1 c9
RxPackets: 372025-12-05 15:07:09.326 | Rx : 01 04 08 00 00 00 00 00 00 00 00 24 0d

**********************************************2025-12-05 15:07:09.847

TxPackets: 392025-12-05 15:07:09.847 | Tx : 01 04 00 00 00 04 f1 c9
RxPackets: 382025-12-05 15:07:09.847 | Rx : 01 04 08 00 00 00 00 00 00 00 00 24 0d
TxPackets: 402025-12-05 15:07:10.366 | Tx : 01 04 00 00 00 04 f1 c9
RxPackets: 392025-12-05 15:07:10.366 | Rx : 01 04 08 00 00 00 00 00 00 00 00 24 0d

**********************************************2025-12-05 15:07:10.887

TxPackets: 412025-12-05 15:07:10.886 | Tx : 01 04 00 00 00 04 f1 c9
RxPackets: 402025-12-05 15:07:10.887 | Rx : 01 04 08 00 00 00 00 00 00 00 00 24 0d
TxPackets: 422025-12-05 15:07:11.406 | Tx : 01 04 00 00 00 04 f1 c9
RxPackets: 412025-12-05 15:07:11.406 | Rx : 01 04 08 00 00 00 00 00 00 00 00 24 0d

**********************************************2025-12-05 15:07:11.925

TxPackets: 432025-12-05 15:07:11.925 | Tx : 01 04 00 00 00 04 f1 c9
RxPackets: 422025-12-05 15:07:11.925 | Rx : 01 04 08 00 00 00 00 00 00 00 00 24 0d
TxPackets: 442025-12-05 15:07:12.447 | Tx : 01 04 00 00 00 04 f1 c9
RxPackets: 432025-12-05 15:07:12.447 | Rx : 01 04 08 00 00 00 00 00 00 00 00 24 0d

**********************************************2025-12-05 15:07:12.968

TxPackets: 452025-12-05 15:07:12.968 | Tx : 01 04 00 00 00 04 f1 c9
RxPackets: 442025-12-05 15:07:12.968 | Rx : 01 04 08 00 00 00 00 00 00 00 00 24 0d
TxPackets: 462025-12-05 15:07:13.487 | Tx : 01 04 00 00 00 04 f1 c9
RxPackets: 452025-12-05 15:07:13.487 | Rx : 01 04 08 00 00 00 00 00 00 00 00 24 0d

**********************************************2025-12-05 15:07:14.005

TxPackets: 472025-12-05 15:07:14.005 | Tx : 01 04 00 00 00 04 f1 c9
RxPackets: 462025-12-05 15:07:14.005 | Rx : 01 04 08 00 00 00 00 00 00 00 00 24 0d
TxPackets: 482025-12-05 15:07:14.526 | Tx : 01 04 00 00 00 04 f1 c9
RxPackets: 472025-12-05 15:07:14.527 | Rx : 01 04 08 00 00 00 00 00 00 00 00 24 0d

**********************************************2025-12-05 15:07:15.047

TxPackets: 492025-12-05 15:07:15.047 | Tx : 01 04 00 00 00 04 f1 c9
RxPackets: 482025-12-05 15:07:15.047 | Rx : 01 04 08 00 00 00 00 00 00 00 00 24 0d
TxPackets: 502025-12-05 15:07:15.565 | Tx : 01 04 00 00 00 04 f1 c9
RxPackets: 492025-12-05 15:07:15.565 | Rx : 01 04 08 00 00 00 00 00 00 00 00 24 0d

**********************************************2025-12-05 15:07:16.086

TxPackets: 512025-12-05 15:07:16.086 | Tx : 01 04 00 00 00 04 f1 c9
RxPackets: 502025-12-05 15:07:16.086 | Rx : 01 04 08 00 00 00 00 00 00 00 00 24 0d
TxPackets: 522025-12-05 15:07:16.605 | Tx : 01 04 00 00 00 04 f1 c9
RxPackets: 512025-12-05 15:07:16.605 | Rx : 01 04 08 00 00 00 00 00 00 00 00 24 0d

**********************************************2025-12-05 15:07:17.126

TxPackets: 532025-12-05 15:07:17.125 | Tx : 01 04 00 00 00 04 f1 c9
RxPackets: 522025-12-05 15:07:17.126 | Rx : 01 04 08 00 00 00 00 00 00 00 00 24 0d
TxPackets: 542025-12-05 15:07:17.657 | Tx : 01 04 00 00 00 04 f1 c9
RxPackets: 532025-12-05 15:07:17.657 | Rx : 01 04 08 00 00 00 00 00 00 00 00 24 0d

**********************************************2025-12-05 15:07:18.175

TxPackets: 552025-12-05 15:07:18.174 | Tx : 01 04 00 00 00 04 f1 c9
RxPackets: 542025-12-05 15:07:18.175 | Rx : 01 04 08 00 00 00 00 00 00 00 00 24 0d
TxPackets: 562025-12-05 15:07:18.696 | Tx : 01 04 00 00 00 04 f1 c9
RxPackets: 552025-12-05 15:07:18.696 | Rx : 01 04 08 00 00 00 00 00 00 00 00 24 0d

**********************************************2025-12-05 15:07:19.217

TxPackets: 572025-12-05 15:07:19.217 | Tx : 01 04 00 00 00 04 f1 c9
RxPackets: 562025-12-05 15:07:19.217 | Rx : 01 04 08 00 00 00 00 00 00 00 00 24 0d
TxPackets: 582025-12-05 15:07:19.736 | Tx : 01 04 00 00 00 04 f1 c9
RxPackets: 572025-12-05 15:07:19.736 | Rx : 01 04 08 00 00 00 00 00 00 00 00 24 0d

**********************************************2025-12-05 15:07:20.256

TxPackets: 592025-12-05 15:07:20.256 | Tx : 01 04 00 00 00 04 f1 c9
RxPackets: 582025-12-05 15:07:20.256 | Rx : 01 04 08 00 00 00 00 00 00 00 00 24 0d
TxPackets: 602025-12-05 15:07:20.777 | Tx : 01 04 00 00 00 04 f1 c9
RxPackets: 592025-12-05 15:07:20.777 | Rx : 01 04 08 00 00 00 00 00 00 00 00 24 0d

**********************************************2025-12-05 15:07:21.297

TxPackets: 612025-12-05 15:07:21.297 | Tx : 01 04 00 00 00 04 f1 c9
RxPackets: 602025-12-05 15:07:21.297 | Rx : 01 04 08 00 00 00 00 00 00 00 00 24 0d
TxPackets: 622025-12-05 15:07:21.815 | Tx : 01 04 00 00 00 04 f1 c9
RxPackets: 612025-12-05 15:07:21.815 | Rx : 01 04 08 00 00 00 00 00 00 00 00 24 0d

**********************************************2025-12-05 15:07:22.337

TxPackets: 632025-12-05 15:07:22.337 | Tx : 01 04 00 00 00 04 f1 c9
RxPackets: 622025-12-05 15:07:22.337 | Rx : 01 04 08 00 00 00 00 00 00 00 00 24 0d
TxPackets: 642025-12-05 15:07:22.855 | Tx : 01 04 00 00 00 04 f1 c9
RxPackets: 632025-12-05 15:07:22.855 | Rx : 01 04 08 00 00 00 00 00 00 00 00 24 0d

**********************************************2025-12-05 15:07:23.375

TxPackets: 652025-12-05 15:07:23.375 | Tx : 01 04 00 00 00 04 f1 c9
RxPackets: 642025-12-05 15:07:23.375 | Rx : 01 04 08 00 00 00 00 00 00 00 00 24 0d
TxPackets: 662025-12-05 15:07:23.898 | Tx : 01 04 00 00 00 04 f1 c9
RxPackets: 652025-12-05 15:07:23.898 | Rx : 01 04 08 00 00 00 00 00 00 00 00 24 0d

**********************************************2025-12-05 15:07:24.416

TxPackets: 672025-12-05 15:07:24.416 | Tx : 01 04 00 00 00 04 f1 c9
RxPackets: 662025-12-05 15:07:24.416 | Rx : 01 04 08 00 00 00 00 00 00 00 00 24 0d
TxPackets: 682025-12-05 15:07:24.937 | Tx : 01 04 00 00 00 04 f1 c9
RxPackets: 672025-12-05 15:07:24.937 | Rx : 01 04 08 00 00 00 00 00 00 00 00 24 0d

**********************************************2025-12-05 15:07:25.455

TxPackets: 692025-12-05 15:07:25.455 | Tx : 01 04 00 00 00 04 f1 c9
RxPackets: 682025-12-05 15:07:25.455 | Rx : 01 04 08 00 00 00 00 00 00 00 00 24 0d
TxPackets: 702025-12-05 15:07:25.977 | Tx : 01 04 00 00 00 04 f1 c9
RxPackets: 692025-12-05 15:07:25.977 | Rx : 01 04 08 00 00 00 00 00 00 00 00 24 0d

**********************************************2025-12-05 15:07:26.496

TxPackets: 712025-12-05 15:07:26.496 | Tx : 01 04 00 00 00 04 f1 c9
RxPackets: 702025-12-05 15:07:26.496 | Rx : 01 04 08 00 00 00 00 00 00 00 00 24 0d
TxPackets: 722025-12-05 15:07:27.015 | Tx : 01 04 00 00 00 04 f1 c9
RxPackets: 712025-12-05 15:07:27.015 | Rx : 01 04 08 00 00 00 00 00 00 00 00 24 0d

**********************************************2025-12-05 15:07:27.537

TxPackets: 732025-12-05 15:07:27.537 | Tx : 01 04 00 00 00 04 f1 c9
RxPackets: 722025-12-05 15:07:27.537 | Rx : 01 04 08 00 00 00 00 00 00 00 00 24 0d
TxPackets: 742025-12-05 15:07:28.056 | Tx : 01 04 00 00 00 04 f1 c9
RxPackets: 732025-12-05 15:07:28.056 | Rx : 01 04 08 00 00 00 00 00 00 00 00 24 0d

**********************************************2025-12-05 15:07:28.577

TxPackets: 752025-12-05 15:07:28.577 | Tx : 01 04 00 00 00 04 f1 c9
RxPackets: 742025-12-05 15:07:28.577 | Rx : 01 04 08 00 00 00 00 00 00 00 00 24 0d
TxPackets: 762025-12-05 15:07:29.097 | Tx : 01 04 00 00 00 04 f1 c9
RxPackets: 752025-12-05 15:07:29.097 | Rx : 01 04 08 00 00 00 00 00 00 00 00 24 0d

**********************************************2025-12-05 15:07:29.615

TxPackets: 772025-12-05 15:07:29.615 | Tx : 01 04 00 00 00 04 f1 c9
RxPackets: 762025-12-05 15:07:29.615 | Rx : 01 04 08 00 00 00 00 00 00 00 00 24 0d
TxPackets: 782025-12-05 15:07:30.137 | Tx : 01 04 00 00 00 04 f1 c9
RxPackets: 772025-12-05 15:07:30.137 | Rx : 01 04 08 00 00 00 00 00 00 00 00 24 0d

**********************************************2025-12-05 15:07:30.656

TxPackets: 792025-12-05 15:07:30.656 | Tx : 01 04 00 00 00 04 f1 c9
RxPackets: 782025-12-05 15:07:30.656 | Rx : 01 04 08 00 00 00 00 00 00 00 00 24 0d
TxPackets: 802025-12-05 15:07:31.176 | Tx : 01 04 00 00 00 04 f1 c9
RxPackets: 792025-12-05 15:07:31.176 | Rx : 01 04 08 00 00 00 00 00 00 00 00 24 0d

**********************************************2025-12-05 15:07:31.696

TxPackets: 812025-12-05 15:07:31.696 | Tx : 01 04 00 00 00 04 f1 c9
RxPackets: 802025-12-05 15:07:31.696 | Rx : 01 04 08 00 00 00 00 00 00 00 00 24 0d
TxPackets: 822025-12-05 15:07:32.216 | Tx : 01 04 00 00 00 04 f1 c9
RxPackets: 812025-12-05 15:07:32.217 | Rx : 01 04 08 00 00 00 00 00 00 00 00 24 0d

**********************************************2025-12-05 15:07:32.739

TxPackets: 832025-12-05 15:07:32.739 | Tx : 01 04 00 00 00 04 f1 c9
RxPackets: 822025-12-05 15:07:32.739 | Rx : 01 04 08 00 00 00 00 00 00 00 00 24 0d
TxPackets: 842025-12-05 15:07:33.255 | Tx : 01 04 00 00 00 04 f1 c9
RxPackets: 832025-12-05 15:07:33.255 | Rx : 01 04 08 00 00 00 00 00 00 00 00 24 0d

**********************************************2025-12-05 15:07:33.776

TxPackets: 852025-12-05 15:07:33.776 | Tx : 01 04 00 00 00 04 f1 c9
RxPackets: 842025-12-05 15:07:33.776 | Rx : 01 04 08 00 00 00 00 00 00 00 00 24 0d
TxPackets: 862025-12-05 15:07:34.296 | Tx : 01 04 00 00 00 04 f1 c9
RxPackets: 852025-12-05 15:07:34.296 | Rx : 01 04 08 00 00 00 00 00 00 00 00 24 0d

**********************************************2025-12-05 15:07:34.817

TxPackets: 872025-12-05 15:07:34.817 | Tx : 01 04 00 00 00 04 f1 c9
RxPackets: 862025-12-05 15:07:34.817 | Rx : 01 04 08 00 00 00 00 00 00 00 00 24 0d
TxPackets: 882025-12-05 15:07:35.347 | Tx : 01 04 00 00 00 04 f1 c9
RxPackets: 872025-12-05 15:07:35.347 | Rx : 01 04 08 00 00 00 00 00 00 00 00 24 0d

**********************************************2025-12-05 15:07:35.876

TxPackets: 892025-12-05 15:07:35.876 | Tx : 01 04 00 00 00 04 f1 c9
RxPackets: 882025-12-05 15:07:35.876 | Rx : 01 04 08 00 00 00 00 00 00 00 00 24 0d
TxPackets: 902025-12-05 15:07:36.397 | Tx : 01 04 00 00 00 04 f1 c9
RxPackets: 892025-12-05 15:07:36.397 | Rx : 01 04 08 00 00 00 00 00 00 00 00 24 0d

**********************************************2025-12-05 15:07:36.916

TxPackets: 912025-12-05 15:07:36.915 | Tx : 01 04 00 00 00 04 f1 c9
RxPackets: 902025-12-05 15:07:36.916 | Rx : 01 04 08 00 00 00 00 00 00 00 00 24 0d
TxPackets: 922025-12-05 15:07:37.436 | Tx : 01 04 00 00 00 04 f1 c9
RxPackets: 912025-12-05 15:07:37.436 | Rx : 01 04 08 00 00 00 00 00 00 00 00 24 0d

**********************************************2025-12-05 15:07:37.967

TxPackets: 932025-12-05 15:07:37.967 | Tx : 01 04 00 00 00 04 f1 c9
RxPackets: 922025-12-05 15:07:37.967 | Rx : 01 04 08 00 00 00 00 00 00 00 00 24 0d
TxPackets: 942025-12-05 15:07:38.487 | Tx : 01 04 00 00 00 04 f1 c9
RxPackets: 932025-12-05 15:07:38.487 | Rx : 01 04 08 00 00 00 00 00 00 00 00 24 0d

**********************************************2025-12-05 15:07:39.008

TxPackets: 952025-12-05 15:07:39.008 | Tx : 01 04 00 00 00 04 f1 c9
RxPackets: 942025-12-05 15:07:39.008 | Rx : 01 04 08 00 00 00 00 00 00 00 00 24 0d
TxPackets: 962025-12-05 15:07:39.527 | Tx : 01 04 00 00 00 04 f1 c9
RxPackets: 952025-12-05 15:07:39.527 | Rx : 01 04 08 00 00 00 00 00 00 00 00 24 0d

**********************************************2025-12-05 15:07:40.048

TxPackets: 972025-12-05 15:07:40.047 | Tx : 01 04 00 00 00 04 f1 c9
RxPackets: 962025-12-05 15:07:40.048 | Rx : 01 04 08 00 00 00 00 00 00 00 00 24 0d
TxPackets: 982025-12-05 15:07:40.567 | Tx : 01 04 00 00 00 04 f1 c9
RxPackets: 972025-12-05 15:07:40.567 | Rx : 01 04 08 00 00 00 00 00 00 00 00 24 0d

**********************************************2025-12-05 15:07:41.087

TxPackets: 992025-12-05 15:07:41.087 | Tx : 01 04 00 00 00 04 f1 c9
RxPackets: 982025-12-05 15:07:41.087 | Rx : 01 04 08 00 00 00 00 00 00 00 00 24 0d
TxPackets: 1002025-12-05 15:07:41.606 | Tx : 01 04 00 00 00 04 f1 c9
RxPackets: 992025-12-05 15:07:41.606 | Rx : 01 04 08 00 00 00 00 00 00 00 00 24 0d

**********************************************2025-12-05 15:07:42.127

TxPackets: 1012025-12-05 15:07:42.127 | Tx : 01 04 00 00 00 04 f1 c9
RxPackets: 1002025-12-05 15:07:42.127 | Rx : 01 04 08 00 00 00 00 00 00 00 00 24 0d
TxPackets: 1022025-12-05 15:07:42.648 | Tx : 01 04 00 00 00 04 f1 c9
RxPackets: 1012025-12-05 15:07:42.648 | Rx : 01 04 08 00 00 00 00 00 00 00 00 24 0d

**********************************************2025-12-05 15:07:43.167

TxPackets: 1032025-12-05 15:07:43.167 | Tx : 01 04 00 00 00 04 f1 c9
RxPackets: 1022025-12-05 15:07:43.167 | Rx : 01 04 08 00 00 00 00 00 00 00 00 24 0d
TxPackets: 1042025-12-05 15:07:43.688 | Tx : 01 04 00 00 00 04 f1 c9
RxPackets: 1032025-12-05 15:07:43.688 | Rx : 01 04 08 00 00 00 00 00 00 00 00 24 0d

**********************************************2025-12-05 15:07:44.206

TxPackets: 1052025-12-05 15:07:44.206 | Tx : 01 04 00 00 00 04 f1 c9
RxPackets: 1042025-12-05 15:07:44.206 | Rx : 01 04 08 00 00 00 00 00 00 00 00 24 0d
TxPackets: 1062025-12-05 15:07:44.726 | Tx : 01 04 00 00 00 04 f1 c9
RxPackets: 1052025-12-05 15:07:44.726 | Rx : 01 04 08 00 00 00 00 00 00 00 00 24 0d

**********************************************2025-12-05 15:07:45.247

TxPackets: 1072025-12-05 15:07:45.247 | Tx : 01 04 00 00 00 04 f1 c9
RxPackets: 1062025-12-05 15:07:45.247 | Rx : 01 04 08 00 00 00 00 00 00 00 00 24 0d
TxPackets: 1082025-12-05 15:07:45.768 | Tx : 01 04 00 00 00 04 f1 c9
RxPackets: 1072025-12-05 15:07:45.768 | Rx : 01 04 08 00 00 00 00 00 00 00 00 24 0d

**********************************************2025-12-05 15:07:46.288

TxPackets: 1092025-12-05 15:07:46.288 | Tx : 01 04 00 00 00 04 f1 c9
RxPackets: 1082025-12-05 15:07:46.288 | Rx : 01 04 08 00 00 00 00 00 00 00 00 24 0d
TxPackets: 1102025-12-05 15:07:46.807 | Tx : 01 04 00 00 00 04 f1 c9
RxPackets: 1092025-12-05 15:07:46.807 | Rx : 01 04 08 00 00 00 00 00 00 00 00 24 0d

**********************************************2025-12-05 15:07:47.327

TxPackets: 1112025-12-05 15:07:47.327 | Tx : 01 04 00 00 00 04 f1 c9
RxPackets: 1102025-12-05 15:07:47.327 | Rx : 01 04 08 00 00 00 00 00 00 00 00 24 0d
TxPackets: 1122025-12-05 15:07:47.847 | Tx : 01 04 00 00 00 04 f1 c9
RxPackets: 1112025-12-05 15:07:47.847 | Rx : 01 04 08 00 00 00 00 00 00 00 00 24 0d

**********************************************2025-12-05 15:07:48.367

TxPackets: 1132025-12-05 15:07:48.367 | Tx : 01 04 00 00 00 04 f1 c9
RxPackets: 1122025-12-05 15:07:48.367 | Rx : 01 04 08 00 00 00 00 00 00 00 00 24 0d
TxPackets: 1142025-12-05 15:07:48.886 | Tx : 01 04 00 00 00 04 f1 c9
RxPackets: 1132025-12-05 15:07:48.886 | Rx : 01 04 08 00 00 00 00 00 00 00 00 24 0d

**********************************************2025-12-05 15:07:49.416

TxPackets: 1152025-12-05 15:07:49.416 | Tx : 01 04 00 00 00 04 f1 c9
RxPackets: 1142025-12-05 15:07:49.416 | Rx : 01 04 08 00 00 00 00 00 00 00 00 24 0d
TxPackets: 1162025-12-05 15:07:49.938 | Tx : 01 04 00 00 00 04 f1 c9
RxPackets: 1152025-12-05 15:07:49.938 | Rx : 01 04 08 00 00 00 00 00 00 00 00 24 0d

**********************************************2025-12-05 15:07:50.456

TxPackets: 1172025-12-05 15:07:50.456 | Tx : 01 04 00 00 00 04 f1 c9
RxPackets: 1162025-12-05 15:07:50.456 | Rx : 01 04 08 00 00 00 00 00 00 00 00 24 0d
TxPackets: 1182025-12-05 15:07:50.976 | Tx : 01 04 00 00 00 04 f1 c9
RxPackets: 1172025-12-05 15:07:50.976 | Rx : 01 04 08 00 00 00 00 00 00 00 00 24 0d

**********************************************2025-12-05 15:07:51.496

TxPackets: 1192025-12-05 15:07:51.496 | Tx : 01 04 00 00 00 04 f1 c9
RxPackets: 1182025-12-05 15:07:51.496 | Rx : 01 04 08 00 00 00 00 00 00 00 00 24 0d
TxPackets: 1202025-12-05 15:07:52.016 | Tx : 01 04 00 00 00 04 f1 c9
RxPackets: 1192025-12-05 15:07:52.016 | Rx : 01 04 08 00 00 00 00 00 00 00 00 24 0d

**********************************************2025-12-05 15:07:52.537

TxPackets: 1212025-12-05 15:07:52.537 | Tx : 01 04 00 00 00 04 f1 c9
RxPackets: 1202025-12-05 15:07:52.537 | Rx : 01 04 08 00 00 00 00 00 00 00 00 24 0d
TxPackets: 1222025-12-05 15:07:53.056 | Tx : 01 04 00 00 00 04 f1 c9
RxPackets: 1212025-12-05 15:07:53.056 | Rx : 01 04 08 00 00 00 00 00 00 00 00 24 0d

**********************************************2025-12-05 15:07:53.576

TxPackets: 1232025-12-05 15:07:53.576 | Tx : 01 04 00 00 00 04 f1 c9
RxPackets: 1222025-12-05 15:07:53.576 | Rx : 01 04 08 00 00 00 00 00 00 00 00 24 0d
TxPackets: 1242025-12-05 15:07:54.095 | Tx : 01 04 00 00 00 04 f1 c9
RxPackets: 1232025-12-05 15:07:54.095 | Rx : 01 04 08 00 00 00 00 00 00 00 00 24 0d

**********************************************2025-12-05 15:07:54.623

TxPackets: 1252025-12-05 15:07:54.623 | Tx : 01 04 00 00 00 04 f1 c9
RxPackets: 1242025-12-05 15:07:54.623 | Rx : 01 04 08 00 00 00 00 00 00 00 00 24 0d
TxPackets: 1262025-12-05 15:07:55.146 | Tx : 01 04 00 00 00 04 f1 c9
RxPackets: 1252025-12-05 15:07:55.146 | Rx : 01 04 08 00 00 00 00 00 00 00 00 24 0d

**********************************************2025-12-05 15:07:55.688

TxPackets: 1272025-12-05 15:07:55.688 | Tx : 01 04 00 00 00 04 f1 c9
RxPackets: 1262025-12-05 15:07:55.688 | Rx : 01 04 08 00 00 00 00 00 00 00 00 24 0d
TxPackets: 1282025-12-05 15:07:56.207 | Tx : 01 04 00 00 00 04 f1 c9
RxPackets: 1272025-12-05 15:07:56.207 | Rx : 01 04 08 00 00 00 00 00 00 00 00 24 0d

**********************************************2025-12-05 15:07:56.727

TxPackets: 1292025-12-05 15:07:56.727 | Tx : 01 04 00 00 00 04 f1 c9
RxPackets: 1282025-12-05 15:07:56.727 | Rx : 01 04 08 00 00 00 00 00 00 00 00 24 0d
TxPackets: 1302025-12-05 15:07:57.245 | Tx : 01 04 00 00 00 04 f1 c9
RxPackets: 1292025-12-05 15:07:57.245 | Rx : 01 04 08 00 00 00 00 00 00 00 00 24 0d

**********************************************2025-12-05 15:07:57.766

TxPackets: 1312025-12-05 15:07:57.766 | Tx : 01 04 00 00 00 04 f1 c9
RxPackets: 1302025-12-05 15:07:57.766 | Rx : 01 04 08 00 00 00 00 00 00 00 00 24 0d
TxPackets: 1322025-12-05 15:07:58.288 | Tx : 01 04 00 00 00 04 f1 c9
RxPackets: 1312025-12-05 15:07:58.288 | Rx : 01 04 08 00 00 00 00 00 00 00 00 24 0d

**********************************************2025-12-05 15:07:58.806

TxPackets: 1332025-12-05 15:07:58.806 | Tx : 01 04 00 00 00 04 f1 c9
RxPackets: 1322025-12-05 15:07:58.806 | Rx : 01 04 08 00 00 00 00 00 00 00 00 24 0d
TxPackets: 1342025-12-05 15:07:59.328 | Tx : 01 04 00 00 00 04 f1 c9
RxPackets: 1332025-12-05 15:07:59.328 | Rx : 01 04 08 00 00 00 00 00 00 00 00 24 0d

**********************************************2025-12-05 15:07:59.846

TxPackets: 1352025-12-05 15:07:59.846 | Tx : 01 04 00 00 00 04 f1 c9
RxPackets: 1342025-12-05 15:07:59.846 | Rx : 01 04 08 00 00 00 00 00 00 00 00 24 0d
TxPackets: 1362025-12-05 15:08:00.376 | Tx : 01 04 00 00 00 04 f1 c9
RxPackets: 1352025-12-05 15:08:00.376 | Rx : 01 04 08 00 00 00 00 00 00 00 00 24 0d

**********************************************2025-12-05 15:08:00.894

TxPackets: 1372025-12-05 15:08:00.894 | Tx : 01 04 00 00 00 04 f1 c9
RxPackets: 1362025-12-05 15:08:00.894 | Rx : 01 04 08 00 00 00 00 00 00 00 00 24 0d
TxPackets: 1382025-12-05 15:08:01.417 | Tx : 01 04 00 00 00 04 f1 c9
RxPackets: 1372025-12-05 15:08:01.417 | Rx : 01 04 08 00 00 00 00 00 00 00 00 24 0d

**********************************************2025-12-05 15:08:01.939

TxPackets: 1392025-12-05 15:08:01.939 | Tx : 01 04 00 00 00 04 f1 c9
RxPackets: 1382025-12-05 15:08:01.939 | Rx : 01 04 08 00 00 00 00 00 00 00 00 24 0d
TxPackets: 1402025-12-05 15:08:02.457 | Tx : 01 04 00 00 00 04 f1 c9
RxPackets: 1392025-12-05 15:08:02.457 | Rx : 01 04 08 00 00 00 00 00 00 00 00 24 0d

**********************************************2025-12-05 15:08:02.977

TxPackets: 1412025-12-05 15:08:02.977 | Tx : 01 04 00 00 00 04 f1 c9
RxPackets: 1402025-12-05 15:08:02.977 | Rx : 01 04 08 00 00 00 00 00 00 00 00 24 0d
TxPackets: 1422025-12-05 15:08:03.497 | Tx : 01 04 00 00 00 04 f1 c9
RxPackets: 1412025-12-05 15:08:03.497 | Rx : 01 04 08 00 00 00 00 00 00 00 00 24 0d

**********************************************2025-12-05 15:08:04.018

TxPackets: 1432025-12-05 15:08:04.018 | Tx : 01 04 00 00 00 04 f1 c9
RxPackets: 1422025-12-05 15:08:04.018 | Rx : 01 04 08 00 00 00 00 00 00 00 00 24 0d
TxPackets: 1442025-12-05 15:08:04.538 | Tx : 01 04 00 00 00 04 f1 c9
RxPackets: 1432025-12-05 15:08:04.538 | Rx : 01 04 08 00 00 00 00 00 00 00 00 24 0d

**********************************************2025-12-05 15:08:05.058

TxPackets: 1452025-12-05 15:08:05.058 | Tx : 01 04 00 00 00 04 f1 c9
RxPackets: 1442025-12-05 15:08:05.058 | Rx : 01 04 08 00 00 00 00 00 00 00 00 24 0d
TxPackets: 1462025-12-05 15:08:05.577 | Tx : 01 04 00 00 00 04 f1 c9
RxPackets: 1452025-12-05 15:08:05.577 | Rx : 01 04 08 00 00 00 00 00 00 00 00 24 0d

**********************************************2025-12-05 15:08:06.098

TxPackets: 1472025-12-05 15:08:06.098 | Tx : 01 04 00 00 00 04 f1 c9
RxPackets: 1462025-12-05 15:08:06.098 | Rx : 01 04 08 00 00 00 00 00 00 00 00 24 0d
TxPackets: 1482025-12-05 15:08:06.616 | Tx : 01 04 00 00 00 04 f1 c9
RxPackets: 1472025-12-05 15:08:06.616 | Rx : 01 04 08 00 00 00 00 00 00 00 00 24 0d

**********************************************2025-12-05 15:08:07.135

TxPackets: 1492025-12-05 15:08:07.135 | Tx : 01 04 00 00 00 04 f1 c9
RxPackets: 1482025-12-05 15:08:07.135 | Rx : 01 04 08 00 00 00 00 00 00 00 00 24 0d
TxPackets: 1502025-12-05 15:08:07.656 | Tx : 01 04 00 00 00 04 f1 c9
RxPackets: 1492025-12-05 15:08:07.656 | Rx : 01 04 08 00 00 00 00 00 00 00 00 24 0d

**********************************************2025-12-05 15:08:08.176

TxPackets: 1512025-12-05 15:08:08.176 | Tx : 01 04 00 00 00 04 f1 c9
RxPackets: 1502025-12-05 15:08:08.176 | Rx : 01 04 08 00 00 00 00 00 00 00 00 24 0d
TxPackets: 1522025-12-05 15:08:08.697 | Tx : 01 04 00 00 00 04 f1 c9
RxPackets: 1512025-12-05 15:08:08.697 | Rx : 01 04 08 00 00 00 00 00 00 00 00 24 0d

**********************************************2025-12-05 15:08:09.218

TxPackets: 1532025-12-05 15:08:09.217 | Tx : 01 04 00 00 00 04 f1 c9
RxPackets: 1522025-12-05 15:08:09.218 | Rx : 01 04 08 00 00 00 00 00 00 00 00 24 0d
TxPackets: 1542025-12-05 15:08:09.737 | Tx : 01 04 00 00 00 04 f1 c9
RxPackets: 1532025-12-05 15:08:09.737 | Rx : 01 04 08 00 00 00 00 00 00 00 00 24 0d

**********************************************2025-12-05 15:08:10.254

TxPackets: 1552025-12-05 15:08:10.254 | Tx : 01 04 00 00 00 04 f1 c9
RxPackets: 1542025-12-05 15:08:10.254 | Rx : 01 04 08 00 00 00 00 00 00 00 00 24 0d
TxPackets: 1562025-12-05 15:08:10.776 | Tx : 01 04 00 00 00 04 f1 c9
RxPackets: 1552025-12-05 15:08:10.776 | Rx : 01 04 08 00 00 00 00 00 00 00 00 24 0d

**********************************************2025-12-05 15:08:11.297

TxPackets: 1572025-12-05 15:08:11.297 | Tx : 01 04 00 00 00 04 f1 c9
RxPackets: 1562025-12-05 15:08:11.297 | Rx : 01 04 08 00 00 00 00 00 00 00 00 24 0d
TxPackets: 1582025-12-05 15:08:11.815 | Tx : 01 04 00 00 00 04 f1 c9
RxPackets: 1572025-12-05 15:08:11.815 | Rx : 01 04 08 00 00 00 00 00 00 00 00 24 0d

**********************************************2025-12-05 15:08:12.336

TxPackets: 1592025-12-05 15:08:12.336 | Tx : 01 04 00 00 00 04 f1 c9
RxPackets: 1582025-12-05 15:08:12.336 | Rx : 01 04 08 00 00 00 00 00 00 00 00 24 0d
TxPackets: 1602025-12-05 15:08:12.856 | Tx : 01 04 00 00 00 04 f1 c9
RxPackets: 1592025-12-05 15:08:12.856 | Rx : 01 04 08 00 00 00 00 00 00 00 00 24 0d

**********************************************2025-12-05 15:08:13.385

TxPackets: 1612025-12-05 15:08:13.385 | Tx : 01 04 00 00 00 04 f1 c9
RxPackets: 1602025-12-05 15:08:13.385 | Rx : 01 04 08 00 00 00 00 00 00 00 00 24 0d
TxPackets: 1622025-12-05 15:08:13.904 | Tx : 01 04 00 00 00 04 f1 c9
RxPackets: 1612025-12-05 15:08:13.904 | Rx : 01 04 08 00 00 00 00 00 00 00 00 24 0d

**********************************************2025-12-05 15:08:14.426

TxPackets: 1632025-12-05 15:08:14.426 | Tx : 01 04 00 00 00 04 f1 c9
RxPackets: 1622025-12-05 15:08:14.426 | Rx : 01 04 08 00 00 00 00 00 00 00 00 24 0d
TxPackets: 1642025-12-05 15:08:14.945 | Tx : 01 04 00 00 00 04 f1 c9
RxPackets: 1632025-12-05 15:08:14.945 | Rx : 01 04 08 00 00 00 00 00 00 00 00 24 0d

**********************************************2025-12-05 15:08:15.468

TxPackets: 1652025-12-05 15:08:15.468 | Tx : 01 04 00 00 00 04 f1 c9
RxPackets: 1642025-12-05 15:08:15.468 | Rx : 01 04 08 00 00 00 00 00 00 00 00 24 0d
TxPackets: 1662025-12-05 15:08:15.988 | Tx : 01 04 00 00 00 04 f1 c9
RxPackets: 1652025-12-05 15:08:15.988 | Rx : 01 04 08 00 00 00 00 00 00 00 00 24 0d

**********************************************2025-12-05 15:08:16.506

TxPackets: 1672025-12-05 15:08:16.506 | Tx : 01 04 00 00 00 04 f1 c9
RxPackets: 1662025-12-05 15:08:16.506 | Rx : 01 04 08 00 00 00 00 00 00 00 00 24 0d
TxPackets: 1682025-12-05 15:08:17.025 | Tx : 01 04 00 00 00 04 f1 c9
RxPackets: 1672025-12-05 15:08:17.025 | Rx : 01 04 08 00 00 00 00 00 00 00 00 24 0d

**********************************************2025-12-05 15:08:17.546

TxPackets: 1692025-12-05 15:08:17.546 | Tx : 01 04 00 00 00 04 f1 c9
RxPackets: 1682025-12-05 15:08:17.546 | Rx : 01 04 08 00 00 00 00 00 00 00 00 24 0d
TxPackets: 1702025-12-05 15:08:18.067 | Tx : 01 04 00 00 00 04 f1 c9
RxPackets: 1692025-12-05 15:08:18.067 | Rx : 01 04 08 00 00 00 00 00 00 00 00 24 0d

**********************************************2025-12-05 15:08:18.588

TxPackets: 1712025-12-05 15:08:18.588 | Tx : 01 04 00 00 00 04 f1 c9
RxPackets: 1702025-12-05 15:08:18.588 | Rx : 01 04 08 00 00 00 00 00 00 00 00 24 0d
TxPackets: 1722025-12-05 15:08:19.108 | Tx : 01 04 00 00 00 04 f1 c9
RxPackets: 1712025-12-05 15:08:19.108 | Rx : 01 04 08 00 00 00 00 00 00 00 00 24 0d

**********************************************2025-12-05 15:08:19.638

TxPackets: 1732025-12-05 15:08:19.638 | Tx : 01 04 00 00 00 04 f1 c9
RxPackets: 1722025-12-05 15:08:19.638 | Rx : 01 04 08 00 00 00 00 00 00 00 00 24 0d
TxPackets: 1742025-12-05 15:08:20.155 | Tx : 01 04 00 00 00 04 f1 c9
RxPackets: 1732025-12-05 15:08:20.155 | Rx : 01 04 08 00 00 00 00 00 00 00 00 24 0d

**********************************************2025-12-05 15:08:20.677

TxPackets: 1752025-12-05 15:08:20.677 | Tx : 01 04 00 00 00 04 f1 c9
RxPackets: 1742025-12-05 15:08:20.677 | Rx : 01 04 08 00 00 00 00 00 00 00 00 24 0d
TxPackets: 1762025-12-05 15:08:21.198 | Tx : 01 04 00 00 00 04 f1 c9
RxPackets: 1752025-12-05 15:08:21.198 | Rx : 01 04 08 00 00 00 00 00 00 00 00 24 0d

**********************************************2025-12-05 15:08:21.717

TxPackets: 1772025-12-05 15:08:21.717 | Tx : 01 04 00 00 00 04 f1 c9
RxPackets: 1762025-12-05 15:08:21.717 | Rx : 01 04 08 00 00 00 00 00 00 00 00 24 0d
TxPackets: 1782025-12-05 15:08:22.238 | Tx : 01 04 00 00 00 04 f1 c9
RxPackets: 1772025-12-05 15:08:22.238 | Rx : 01 04 08 00 00 00 00 00 00 00 00 24 0d

**********************************************2025-12-05 15:08:22.758

TxPackets: 1792025-12-05 15:08:22.758 | Tx : 01 04 00 00 00 04 f1 c9
RxPackets: 1782025-12-05 15:08:22.758 | Rx : 01 04 08 00 00 00 00 00 00 00 00 24 0d
TxPackets: 1802025-12-05 15:08:23.284 | Tx : 01 04 00 00 00 04 f1 c9
RxPackets: 1792025-12-05 15:08:23.284 | Rx : 01 04 08 00 00 00 00 00 00 00 00 24 0d

**********************************************2025-12-05 15:08:23.805

TxPackets: 1812025-12-05 15:08:23.805 | Tx : 01 04 00 00 00 04 f1 c9
RxPackets: 1802025-12-05 15:08:23.805 | Rx : 01 04 08 00 00 00 00 00 00 00 00 24 0d
TxPackets: 1822025-12-05 15:08:24.436 | Tx : 01 04 00 00 00 04 f1 c9
RxPackets: 1812025-12-05 15:08:24.436 | Rx : 01 04 08 00 00 00 00 00 00 00 00 24 0d

**********************************************2025-12-05 15:08:24.954

TxPackets: 1832025-12-05 15:08:24.954 | Tx : 01 04 00 00 00 04 f1 c9
RxPackets: 1822025-12-05 15:08:24.954 | Rx : 01 04 08 00 00 00 00 00 00 00 00 24 0d
TxPackets: 1842025-12-05 15:08:25.477 | Tx : 01 04 00 00 00 04 f1 c9
RxPackets: 1832025-12-05 15:08:25.477 | Rx : 01 04 08 00 00 00 00 00 00 00 00 24 0d

**********************************************2025-12-05 15:08:25.995

TxPackets: 1852025-12-05 15:08:25.995 | Tx : 01 04 00 00 00 04 f1 c9
RxPackets: 1842025-12-05 15:08:25.995 | Rx : 01 04 08 00 00 00 00 00 00 00 00 24 0d
TxPackets: 1862025-12-05 15:08:26.518 | Tx : 01 04 00 00 00 04 f1 c9
RxPackets: 1852025-12-05 15:08:26.518 | Rx : 01 04 08 00 00 00 00 00 00 00 00 24 0d

**********************************************2025-12-05 15:08:27.033

TxPackets: 1872025-12-05 15:08:27.033 | Tx : 01 04 00 00 00 04 f1 c9
RxPackets: 1862025-12-05 15:08:27.033 | Rx : 01 04 08 00 00 00 00 00 00 00 00 24 0d
TxPackets: 1882025-12-05 15:08:27.555 | Tx : 01 04 00 00 00 04 f1 c9
RxPackets: 1872025-12-05 15:08:27.555 | Rx : 01 04 08 00 00 00 00 00 00 00 00 24 0d

**********************************************2025-12-05 15:08:28.114

TxPackets: 1892025-12-05 15:08:28.114 | Tx : 01 04 00 00 00 04 f1 c9
RxPackets: 1882025-12-05 15:08:28.114 | Rx : 01 04 08 00 00 00 00 00 00 00 00 24 0d
TxPackets: 1902025-12-05 15:08:28.656 | Tx : 01 04 00 00 00 04 f1 c9
RxPackets: 1892025-12-05 15:08:28.656 | Rx : 01 04 08 00 00 00 00 00 00 00 00 24 0d

**********************************************2025-12-05 15:08:29.179

TxPackets: 1912025-12-05 15:08:29.179 | Tx : 01 04 00 00 00 04 f1 c9
RxPackets: 1902025-12-05 15:08:29.179 | Rx : 01 04 08 00 00 00 00 00 00 00 00 24 0d
TxPackets: 1922025-12-05 15:08:29.706 | Tx : 01 04 00 00 00 04 f1 c9
RxPackets: 1912025-12-05 15:08:29.706 | Rx : 01 04 08 00 00 00 00 00 00 00 00 24 0d

**********************************************2025-12-05 15:08:30.228

TxPackets: 1932025-12-05 15:08:30.228 | Tx : 01 04 00 00 00 04 f1 c9
RxPackets: 1922025-12-05 15:08:30.228 | Rx : 01 04 08 00 00 00 00 00 00 00 00 24 0d
TxPackets: 1942025-12-05 15:08:30.757 | Tx : 01 04 00 00 00 04 f1 c9
RxPackets: 1932025-12-05 15:08:30.757 | Rx : 01 04 08 00 00 00 00 00 00 00 00 24 0d

**********************************************2025-12-05 15:08:31.276

TxPackets: 1952025-12-05 15:08:31.276 | Tx : 01 04 00 00 00 04 f1 c9
RxPackets: 1942025-12-05 15:08:31.276 | Rx : 01 04 08 00 00 00 00 00 00 00 00 24 0d
TxPackets: 1962025-12-05 15:08:31.796 | Tx : 01 04 00 00 00 04 f1 c9
RxPackets: 1952025-12-05 15:08:31.796 | Rx : 01 04 08 00 00 00 00 00 00 00 00 24 0d

**********************************************2025-12-05 15:08:32.317

TxPackets: 1972025-12-05 15:08:32.316 | Tx : 01 04 00 00 00 04 f1 c9
RxPackets: 1962025-12-05 15:08:32.317 | Rx : 01 04 08 00 00 00 00 00 00 00 00 24 0d
TxPackets: 1982025-12-05 15:08:32.839 | Tx : 01 04 00 00 00 04 f1 c9
RxPackets: 1972025-12-05 15:08:32.839 | Rx : 01 04 08 00 00 00 00 00 00 00 00 24 0d

**********************************************2025-12-05 15:08:33.368

TxPackets: 1992025-12-05 15:08:33.368 | Tx : 01 04 00 00 00 04 f1 c9
RxPackets: 1982025-12-05 15:08:33.368 | Rx : 01 04 08 00 00 00 00 00 00 00 00 24 0d
TxPackets: 2002025-12-05 15:08:33.888 | Tx : 01 04 00 00 00 04 f1 c9
RxPackets: 1992025-12-05 15:08:33.888 | Rx : 01 04 08 00 00 00 00 00 00 00 00 24 0d

**********************************************2025-12-05 15:08:34.427

TxPackets: 2012025-12-05 15:08:34.426 | Tx : 01 04 00 00 00 04 f1 c9
RxPackets: 2002025-12-05 15:08:34.427 | Rx : 01 04 08 00 00 00 00 00 00 00 00 24 0d
TxPackets: 2022025-12-05 15:08:34.955 | Tx : 01 04 00 00 00 04 f1 c9
RxPackets: 2012025-12-05 15:08:34.955 | Rx : 01 04 08 00 00 00 00 00 00 00 00 24 0d

**********************************************2025-12-05 15:08:35.476

TxPackets: 2032025-12-05 15:08:35.476 | Tx : 01 04 00 00 00 04 f1 c9
RxPackets: 2022025-12-05 15:08:35.476 | Rx : 01 04 08 00 00 00 00 00 00 00 00 24 0d
TxPackets: 2042025-12-05 15:08:35.994 | Tx : 01 04 00 00 00 04 f1 c9
RxPackets: 2032025-12-05 15:08:35.994 | Rx : 01 04 08 00 00 00 00 00 00 00 00 24 0d

**********************************************2025-12-05 15:08:36.515

TxPackets: 2052025-12-05 15:08:36.515 | Tx : 01 04 00 00 00 04 f1 c9
RxPackets: 2042025-12-05 15:08:36.515 | Rx : 01 04 08 00 00 00 00 00 00 00 00 24 0d
TxPackets: 2062025-12-05 15:08:37.037 | Tx : 01 04 00 00 00 04 f1 c9
RxPackets: 2052025-12-05 15:08:37.037 | Rx : 01 04 08 00 00 00 00 00 00 00 00 24 0d

**********************************************2025-12-05 15:08:37.575

TxPackets: 2072025-12-05 15:08:37.575 | Tx : 01 04 00 00 00 04 f1 c9
RxPackets: 2062025-12-05 15:08:37.575 | Rx : 01 04 08 00 00 00 00 00 00 00 00 24 0d
TxPackets: 2082025-12-05 15:08:38.116 | Tx : 01 04 00 00 00 04 f1 c9
RxPackets: 2072025-12-05 15:08:38.116 | Rx : 01 04 08 00 00 00 00 00 00 00 00 24 0d

**********************************************2025-12-05 15:08:38.646

TxPackets: 2092025-12-05 15:08:38.646 | Tx : 01 04 00 00 00 04 f1 c9
RxPackets: 2082025-12-05 15:08:38.646 | Rx : 01 04 08 00 00 00 00 00 00 00 00 24 0d
TxPackets: 2102025-12-05 15:08:39.166 | Tx : 01 04 00 00 00 04 f1 c9
RxPackets: 2092025-12-05 15:08:39.166 | Rx : 01 04 08 00 00 00 00 00 00 00 00 24 0d

**********************************************2025-12-05 15:08:39.714

TxPackets: 2112025-12-05 15:08:39.714 | Tx : 01 04 00 00 00 04 f1 c9
RxPackets: 2102025-12-05 15:08:39.714 | Rx : 01 04 08 00 00 00 00 00 00 00 00 24 0d
TxPackets: 2122025-12-05 15:08:40.237 | Tx : 01 04 00 00 00 04 f1 c9
RxPackets: 2112025-12-05 15:08:40.237 | Rx : 01 04 08 00 00 00 00 00 00 00 00 24 0d

**********************************************2025-12-05 15:08:40.776

TxPackets: 2132025-12-05 15:08:40.776 | Tx : 01 04 00 00 00 04 f1 c9
RxPackets: 2122025-12-05 15:08:40.776 | Rx : 01 04 08 00 00 00 00 00 00 00 00 24 0d
TxPackets: 2142025-12-05 15:08:41.294 | Tx : 01 04 00 00 00 04 f1 c9
RxPackets: 2132025-12-05 15:08:41.294 | Rx : 01 04 08 00 00 00 00 00 00 00 00 24 0d

**********************************************2025-12-05 15:08:41.816

TxPackets: 2152025-12-05 15:08:41.816 | Tx : 01 04 00 00 00 04 f1 c9
RxPackets: 2142025-12-05 15:08:41.816 | Rx : 01 04 08 00 00 00 00 00 00 00 00 24 0d
TxPackets: 2162025-12-05 15:08:42.338 | Tx : 01 04 00 00 00 04 f1 c9
RxPackets: 2152025-12-05 15:08:42.338 | Rx : 01 04 08 00 00 00 00 00 00 00 00 24 0d

**********************************************2025-12-05 15:08:42.876

TxPackets: 2172025-12-05 15:08:42.876 | Tx : 01 04 00 00 00 04 f1 c9
RxPackets: 2162025-12-05 15:08:42.876 | Rx : 01 04 08 00 00 00 00 00 00 00 00 24 0d
TxPackets: 2182025-12-05 15:08:43.397 | Tx : 01 04 00 00 00 04 f1 c9
RxPackets: 2172025-12-05 15:08:43.397 | Rx : 01 04 08 00 00 00 00 00 00 00 00 24 0d

**********************************************2025-12-05 15:08:43.937

TxPackets: 2192025-12-05 15:08:43.937 | Tx : 01 04 00 00 00 04 f1 c9
RxPackets: 2182025-12-05 15:08:43.937 | Rx : 01 04 08 00 00 00 00 00 00 00 00 24 0d
TxPackets: 2202025-12-05 15:08:44.455 | Tx : 01 04 00 00 00 04 f1 c9
RxPackets: 2192025-12-05 15:08:44.455 | Rx : 01 04 08 00 00 00 00 00 00 00 00 24 0d

**********************************************2025-12-05 15:08:44.975

TxPackets: 2212025-12-05 15:08:44.975 | Tx : 01 04 00 00 00 04 f1 c9
RxPackets: 2202025-12-05 15:08:44.975 | Rx : 01 04 08 00 00 00 00 00 00 00 00 24 0d
TxPackets: 2222025-12-05 15:08:45.495 | Tx : 01 04 00 00 00 04 f1 c9
RxPackets: 2212025-12-05 15:08:45.495 | Rx : 01 04 08 00 00 00 00 00 00 00 00 24 0d

**********************************************2025-12-05 15:08:46.016

TxPackets: 2232025-12-05 15:08:46.016 | Tx : 01 04 00 00 00 04 f1 c9
RxPackets: 2222025-12-05 15:08:46.016 | Rx : 01 04 08 00 00 00 00 00 00 00 00 24 0d
TxPackets: 2242025-12-05 15:08:46.538 | Tx : 01 04 00 00 00 04 f1 c9
RxPackets: 2232025-12-05 15:08:46.538 | Rx : 01 04 08 00 00 00 00 00 00 00 00 24 0d

**********************************************2025-12-05 15:08:47.054

TxPackets: 2252025-12-05 15:08:47.054 | Tx : 01 04 00 00 00 04 f1 c9
RxPackets: 2242025-12-05 15:08:47.054 | Rx : 01 04 08 00 00 00 00 00 00 00 00 24 0d
TxPackets: 2262025-12-05 15:08:47.578 | Tx : 01 04 00 00 00 04 f1 c9
RxPackets: 2252025-12-05 15:08:47.578 | Rx : 01 04 08 00 00 00 00 00 00 00 00 24 0d

**********************************************2025-12-05 15:08:48.116

TxPackets: 2272025-12-05 15:08:48.116 | Tx : 01 04 00 00 00 04 f1 c9
RxPackets: 2262025-12-05 15:08:48.116 | Rx : 01 04 08 00 00 00 00 00 00 00 00 24 0d
TxPackets: 2282025-12-05 15:08:48.636 | Tx : 01 04 00 00 00 04 f1 c9
RxPackets: 2272025-12-05 15:08:48.636 | Rx : 01 04 08 00 00 00 00 00 00 00 00 24 0d

**********************************************2025-12-05 15:08:49.165

TxPackets: 2292025-12-05 15:08:49.165 | Tx : 01 04 00 00 00 04 f1 c9
RxPackets: 2282025-12-05 15:08:49.165 | Rx : 01 04 08 00 00 00 00 00 00 00 00 24 0d
TxPackets: 2302025-12-05 15:08:49.715 | Tx : 01 04 00 00 00 04 f1 c9
RxPackets: 2292025-12-05 15:08:49.715 | Rx : 01 04 08 00 00 00 00 00 00 00 00 24 0d

**********************************************2025-12-05 15:08:50.268

TxPackets: 2312025-12-05 15:08:50.268 | Tx : 01 04 00 00 00 04 f1 c9
RxPackets: 2302025-12-05 15:08:50.268 | Rx : 01 04 08 00 00 00 00 00 00 00 00 24 0d
TxPackets: 2322025-12-05 15:08:50.796 | Tx : 01 04 00 00 00 04 f1 c9
RxPackets: 2312025-12-05 15:08:50.796 | Rx : 01 04 08 00 00 00 00 00 00 00 00 24 0d

**********************************************2025-12-05 15:08:51.337

TxPackets: 2332025-12-05 15:08:51.337 | Tx : 01 04 00 00 00 04 f1 c9
RxPackets: 2322025-12-05 15:08:51.337 | Rx : 01 04 08 00 00 00 00 00 00 00 00 24 0d
TxPackets: 2342025-12-05 15:08:51.860 | Tx : 01 04 00 00 00 04 f1 c9
RxPackets: 2332025-12-05 15:08:51.860 | Rx : 01 04 08 00 00 00 00 00 00 00 00 24 0d

**********************************************2025-12-05 15:08:52.396

TxPackets: 2352025-12-05 15:08:52.396 | Tx : 01 04 00 00 00 04 f1 c9
RxPackets: 2342025-12-05 15:08:52.396 | Rx : 01 04 08 00 00 00 00 00 00 00 00 24 0d
TxPackets: 2362025-12-05 15:08:52.926 | Tx : 01 04 00 00 00 04 f1 c9
RxPackets: 2352025-12-05 15:08:52.926 | Rx : 01 04 08 00 00 00 00 00 00 00 00 24 0d

**********************************************2025-12-05 15:08:53.446

TxPackets: 2372025-12-05 15:08:53.446 | Tx : 01 04 00 00 00 04 f1 c9
RxPackets: 2362025-12-05 15:08:53.446 | Rx : 01 04 08 00 00 00 00 00 00 00 00 24 0d
TxPackets: 2382025-12-05 15:08:53.977 | Tx : 01 04 00 00 00 04 f1 c9
RxPackets: 2372025-12-05 15:08:53.977 | Rx : 01 04 08 00 00 00 00 00 00 00 00 24 0d

**********************************************2025-12-05 15:08:54.499

TxPackets: 2392025-12-05 15:08:54.499 | Tx : 01 04 00 00 00 04 f1 c9
RxPackets: 2382025-12-05 15:08:54.499 | Rx : 01 04 08 00 00 00 00 00 00 00 00 24 0d
TxPackets: 2402025-12-05 15:08:55.036 | Tx : 01 04 00 00 00 04 f1 c9
RxPackets: 2392025-12-05 15:08:55.036 | Rx : 01 04 08 00 00 00 00 00 00 00 00 24 0d

**********************************************2025-12-05 15:08:55.566

TxPackets: 2412025-12-05 15:08:55.566 | Tx : 01 04 00 00 00 04 f1 c9
RxPackets: 2402025-12-05 15:08:55.566 | Rx : 01 04 08 00 00 00 00 00 00 00 00 24 0d
TxPackets: 2422025-12-05 15:08:56.105 | Tx : 01 04 00 00 00 04 f1 c9
RxPackets: 2412025-12-05 15:08:56.105 | Rx : 01 04 08 00 00 00 00 00 00 00 00 24 0d

**********************************************2025-12-05 15:08:56.626

TxPackets: 2432025-12-05 15:08:56.626 | Tx : 01 04 00 00 00 04 f1 c9
RxPackets: 2422025-12-05 15:08:56.626 | Rx : 01 04 08 00 00 00 00 00 00 00 00 24 0d
TxPackets: 2442025-12-05 15:08:57.156 | Tx : 01 04 00 00 00 04 f1 c9
RxPackets: 2432025-12-05 15:08:57.156 | Rx : 01 04 08 00 00 00 00 00 00 00 00 24 0d

**********************************************2025-12-05 15:08:57.695

TxPackets: 2452025-12-05 15:08:57.695 | Tx : 01 04 00 00 00 04 f1 c9
RxPackets: 2442025-12-05 15:08:57.695 | Rx : 01 04 08 00 00 00 00 00 00 00 00 24 0d
TxPackets: 2462025-12-05 15:08:58.215 | Tx : 01 04 00 00 00 04 f1 c9
RxPackets: 2452025-12-05 15:08:58.215 | Rx : 01 04 08 00 00 00 00 00 00 00 00 24 0d

**********************************************2025-12-05 15:08:58.737

TxPackets: 2472025-12-05 15:08:58.737 | Tx : 01 04 00 00 00 04 f1 c9
RxPackets: 2462025-12-05 15:08:58.737 | Rx : 01 04 08 00 00 00 00 00 00 00 00 24 0d
TxPackets: 2482025-12-05 15:08:59.255 | Tx : 01 04 00 00 00 04 f1 c9
RxPackets: 2472025-12-05 15:08:59.255 | Rx : 01 04 08 00 00 00 00 00 00 00 00 24 0d

**********************************************2025-12-05 15:08:59.776

TxPackets: 2492025-12-05 15:08:59.776 | Tx : 01 04 00 00 00 04 f1 c9
RxPackets: 2482025-12-05 15:08:59.776 | Rx : 01 04 08 00 00 00 00 00 00 00 00 24 0d
TxPackets: 2502025-12-05 15:09:00.295 | Tx : 01 04 00 00 00 04 f1 c9
RxPackets: 2492025-12-05 15:09:00.295 | Rx : 01 04 08 00 00 00 00 00 00 00 00 24 0d

**********************************************2025-12-05 15:09:00.816

TxPackets: 2512025-12-05 15:09:00.816 | Tx : 01 04 00 00 00 04 f1 c9
RxPackets: 2502025-12-05 15:09:00.816 | Rx : 01 04 08 00 00 00 00 00 00 00 00 24 0d
TxPackets: 2522025-12-05 15:09:01.346 | Tx : 01 04 00 00 00 04 f1 c9
RxPackets: 2512025-12-05 15:09:01.346 | Rx : 01 04 08 00 00 00 00 00 00 00 00 24 0d

**********************************************2025-12-05 15:09:01.864

TxPackets: 2532025-12-05 15:09:01.864 | Tx : 01 04 00 00 00 04 f1 c9
RxPackets: 2522025-12-05 15:09:01.864 | Rx : 01 04 08 00 00 00 00 00 00 00 00 24 0d
TxPackets: 2542025-12-05 15:09:02.395 | Tx : 01 04 00 00 00 04 f1 c9
RxPackets: 2532025-12-05 15:09:02.395 | Rx : 01 04 08 00 00 00 00 00 00 00 00 24 0d

**********************************************2025-12-05 15:09:02.917

TxPackets: 2552025-12-05 15:09:02.917 | Tx : 01 04 00 00 00 04 f1 c9
RxPackets: 2542025-12-05 15:09:02.917 | Rx : 01 04 08 00 00 00 00 00 00 00 00 24 0d
TxPackets: 2562025-12-05 15:09:03.494 | Tx : 01 04 00 00 00 04 f1 c9
RxPackets: 2552025-12-05 15:09:03.494 | Rx : 01 04 08 00 00 00 00 00 00 00 00 24 0d

**********************************************2025-12-05 15:09:04.017

TxPackets: 2572025-12-05 15:09:04.017 | Tx : 01 04 00 00 00 04 f1 c9
RxPackets: 2562025-12-05 15:09:04.017 | Rx : 01 04 08 00 00 00 00 00 00 00 00 24 0d
TxPackets: 2582025-12-05 15:09:04.546 | Tx : 01 04 00 00 00 04 f1 c9
RxPackets: 2572025-12-05 15:09:04.546 | Rx : 01 04 08 00 00 00 00 00 00 00 00 24 0d

**********************************************2025-12-05 15:09:05.066

TxPackets: 2592025-12-05 15:09:05.066 | Tx : 01 04 00 00 00 04 f1 c9
RxPackets: 2582025-12-05 15:09:05.066 | Rx : 01 04 08 00 00 00 00 00 00 00 00 24 0d
TxPackets: 2602025-12-05 15:09:05.586 | Tx : 01 04 00 00 00 04 f1 c9
RxPackets: 2592025-12-05 15:09:05.586 | Rx : 01 04 08 00 00 00 00 00 00 00 00 24 0d

**********************************************2025-12-05 15:09:06.106

TxPackets: 2612025-12-05 15:09:06.106 | Tx : 01 04 00 00 00 04 f1 c9
RxPackets: 2602025-12-05 15:09:06.106 | Rx : 01 04 08 00 00 00 00 00 00 00 00 24 0d
TxPackets: 2622025-12-05 15:09:06.639 | Tx : 01 04 00 00 00 04 f1 c9
RxPackets: 2612025-12-05 15:09:06.639 | Rx : 01 04 08 00 00 00 00 00 00 00 00 24 0d

**********************************************2025-12-05 15:09:07.156

TxPackets: 2632025-12-05 15:09:07.156 | Tx : 01 04 00 00 00 04 f1 c9
RxPackets: 2622025-12-05 15:09:07.156 | Rx : 01 04 08 00 00 00 00 00 00 00 00 24 0d
TxPackets: 2642025-12-05 15:09:07.676 | Tx : 01 04 00 00 00 04 f1 c9
RxPackets: 2632025-12-05 15:09:07.676 | Rx : 01 04 08 00 00 00 00 00 00 00 00 24 0d

**********************************************2025-12-05 15:09:08.196

TxPackets: 2652025-12-05 15:09:08.195 | Tx : 01 04 00 00 00 04 f1 c9
RxPackets: 2642025-12-05 15:09:08.196 | Rx : 01 04 08 00 00 00 00 00 00 00 00 24 0d
TxPackets: 2662025-12-05 15:09:08.726 | Tx : 01 04 00 00 00 04 f1 c9
RxPackets: 2652025-12-05 15:09:08.726 | Rx : 01 04 08 00 00 00 00 00 00 00 00 24 0d

**********************************************2025-12-05 15:09:09.256

TxPackets: 2672025-12-05 15:09:09.256 | Tx : 01 04 00 00 00 04 f1 c9
RxPackets: 2662025-12-05 15:09:09.256 | Rx : 01 04 08 00 00 00 00 00 00 00 00 24 0d
TxPackets: 2682025-12-05 15:09:09.776 | Tx : 01 04 00 00 00 04 f1 c9
RxPackets: 2672025-12-05 15:09:09.776 | Rx : 01 04 08 00 00 00 00 00 00 00 00 24 0d

**********************************************2025-12-05 15:09:10.296

TxPackets: 2692025-12-05 15:09:10.296 | Tx : 01 04 00 00 00 04 f1 c9
RxPackets: 2682025-12-05 15:09:10.296 | Rx : 01 04 08 00 00 00 00 00 00 00 00 24 0d
TxPackets: 2702025-12-05 15:09:10.825 | Tx : 01 04 00 00 00 04 f1 c9
RxPackets: 2692025-12-05 15:09:10.825 | Rx : 01 04 08 00 00 00 00 00 00 00 00 24 0d

**********************************************2025-12-05 15:09:11.357

TxPackets: 2712025-12-05 15:09:11.357 | Tx : 01 04 00 00 00 04 f1 c9
RxPackets: 2702025-12-05 15:09:11.357 | Rx : 01 04 08 00 00 00 00 00 00 00 00 24 0d
TxPackets: 2722025-12-05 15:09:11.938 | Tx : 01 04 00 00 00 04 f1 c9
RxPackets: 2712025-12-05 15:09:11.938 | Rx : 01 04 08 00 00 00 00 00 00 00 00 24 0d

**********************************************2025-12-05 15:09:12.457

TxPackets: 2732025-12-05 15:09:12.457 | Tx : 01 04 00 00 00 04 f1 c9
RxPackets: 2722025-12-05 15:09:12.457 | Rx : 01 04 08 00 00 00 00 00 00 00 00 24 0d
TxPackets: 2742025-12-05 15:09:12.988 | Tx : 01 04 00 00 00 04 f1 c9
RxPackets: 2732025-12-05 15:09:12.989 | Rx : 01 04 08 00 00 00 00 00 00 00 00 24 0d

**********************************************2025-12-05 15:09:13.507

TxPackets: 2752025-12-05 15:09:13.507 | Tx : 01 04 00 00 00 04 f1 c9
RxPackets: 2742025-12-05 15:09:13.507 | Rx : 01 04 08 00 00 00 00 00 00 00 00 24 0d
TxPackets: 2762025-12-05 15:09:14.027 | Tx : 01 04 00 00 00 04 f1 c9
RxPackets: 2752025-12-05 15:09:14.027 | Rx : 01 04 08 00 00 00 00 00 00 00 00 24 0d

**********************************************2025-12-05 15:09:14.549

TxPackets: 2772025-12-05 15:09:14.549 | Tx : 01 04 00 00 00 04 f1 c9
RxPackets: 2762025-12-05 15:09:14.549 | Rx : 01 04 08 00 00 00 00 00 00 00 00 24 0d
TxPackets: 2782025-12-05 15:09:15.065 | Tx : 01 04 00 00 00 04 f1 c9
RxPackets: 2772025-12-05 15:09:15.065 | Rx : 01 04 08 00 00 00 00 00 00 00 00 24 0d

**********************************************2025-12-05 15:09:15.597

TxPackets: 2792025-12-05 15:09:15.597 | Tx : 01 04 00 00 00 04 f1 c9
RxPackets: 2782025-12-05 15:09:15.597 | Rx : 01 04 08 00 00 00 00 00 00 00 00 24 0d
TxPackets: 2802025-12-05 15:09:16.126 | Tx : 01 04 00 00 00 04 f1 c9
RxPackets: 2792025-12-05 15:09:16.126 | Rx : 01 04 08 00 00 00 00 00 00 00 00 24 0d

**********************************************2025-12-05 15:09:16.646

TxPackets: 2812025-12-05 15:09:16.646 | Tx : 01 04 00 00 00 04 f1 c9
RxPackets: 2802025-12-05 15:09:16.646 | Rx : 01 04 08 00 00 00 00 00 00 00 00 24 0d
TxPackets: 2822025-12-05 15:09:17.167 | Tx : 01 04 00 00 00 04 f1 c9
RxPackets: 2812025-12-05 15:09:17.167 | Rx : 01 04 08 00 00 00 00 00 00 00 00 24 0d

**********************************************2025-12-05 15:09:17.686

TxPackets: 2832025-12-05 15:09:17.686 | Tx : 01 04 00 00 00 04 f1 c9
RxPackets: 2822025-12-05 15:09:17.686 | Rx : 01 04 08 00 00 00 00 00 00 00 00 24 0d
TxPackets: 2842025-12-05 15:09:18.216 | Tx : 01 04 00 00 00 04 f1 c9
RxPackets: 2832025-12-05 15:09:18.216 | Rx : 01 04 08 00 00 00 00 00 00 00 00 24 0d

**********************************************2025-12-05 15:09:18.737

TxPackets: 2852025-12-05 15:09:18.737 | Tx : 01 04 00 00 00 04 f1 c9
RxPackets: 2842025-12-05 15:09:18.737 | Rx : 01 04 08 00 00 00 00 00 00 00 00 24 0d
TxPackets: 2862025-12-05 15:09:19.277 | Tx : 01 04 00 00 00 04 f1 c9
RxPackets: 2852025-12-05 15:09:19.277 | Rx : 01 04 08 00 00 00 00 00 00 00 00 24 0d

**********************************************2025-12-05 15:09:19.796

TxPackets: 2872025-12-05 15:09:19.796 | Tx : 01 04 00 00 00 04 f1 c9
RxPackets: 2862025-12-05 15:09:19.796 | Rx : 01 04 08 00 00 00 00 00 00 00 00 24 0d
TxPackets: 2882025-12-05 15:09:20.326 | Tx : 01 04 00 00 00 04 f1 c9
RxPackets: 2872025-12-05 15:09:20.326 | Rx : 01 04 08 00 00 00 00 00 00 00 00 24 0d

**********************************************2025-12-05 15:09:20.856

TxPackets: 2892025-12-05 15:09:20.856 | Tx : 01 04 00 00 00 04 f1 c9
RxPackets: 2882025-12-05 15:09:20.856 | Rx : 01 04 08 00 00 00 00 00 00 00 00 24 0d
TxPackets: 2902025-12-05 15:09:21.377 | Tx : 01 04 00 00 00 04 f1 c9
RxPackets: 2892025-12-05 15:09:21.377 | Rx : 01 04 08 00 00 00 00 00 00 00 00 24 0d

**********************************************2025-12-05 15:09:21.895

TxPackets: 2912025-12-05 15:09:21.895 | Tx : 01 04 00 00 00 04 f1 c9
RxPackets: 2902025-12-05 15:09:21.895 | Rx : 01 04 08 00 00 00 00 00 00 00 00 24 0d
TxPackets: 2922025-12-05 15:09:22.457 | Tx : 01 04 00 00 00 04 f1 c9
RxPackets: 2912025-12-05 15:09:22.457 | Rx : 01 04 08 00 00 00 00 00 00 00 00 24 0d

**********************************************2025-12-05 15:09:22.977

TxPackets: 2932025-12-05 15:09:22.977 | Tx : 01 04 00 00 00 04 f1 c9
RxPackets: 2922025-12-05 15:09:22.977 | Rx : 01 04 08 00 00 00 00 00 00 00 00 24 0d
TxPackets: 2942025-12-05 15:09:23.506 | Tx : 01 04 00 00 00 04 f1 c9
RxPackets: 2932025-12-05 15:09:23.506 | Rx : 01 04 08 00 00 00 00 00 00 00 00 24 0d

**********************************************2025-12-05 15:09:24.025

TxPackets: 2952025-12-05 15:09:24.025 | Tx : 01 04 00 00 00 04 f1 c9
RxPackets: 2942025-12-05 15:09:24.025 | Rx : 01 04 08 00 00 00 00 00 00 00 00 24 0d
TxPackets: 2962025-12-05 15:09:24.546 | Tx : 01 04 00 00 00 04 f1 c9
RxPackets: 2952025-12-05 15:09:24.546 | Rx : 01 04 08 00 00 00 00 00 00 00 00 24 0d

**********************************************2025-12-05 15:09:25.066

TxPackets: 2972025-12-05 15:09:25.066 | Tx : 01 04 00 00 00 04 f1 c9
RxPackets: 2962025-12-05 15:09:25.066 | Rx : 01 04 08 00 00 00 00 00 00 00 00 24 0d
TxPackets: 2982025-12-05 15:09:25.588 | Tx : 01 04 00 00 00 04 f1 c9
RxPackets: 2972025-12-05 15:09:25.588 | Rx : 01 04 08 00 00 00 00 00 00 00 00 24 0d

**********************************************2025-12-05 15:09:26.147

TxPackets: 2992025-12-05 15:09:26.147 | Tx : 01 04 00 00 00 04 f1 c9
RxPackets: 2982025-12-05 15:09:26.147 | Rx : 01 04 08 00 00 00 00 00 00 00 00 24 0d
TxPackets: 3002025-12-05 15:09:26.689 | Tx : 01 04 00 00 00 04 f1 c9
RxPackets: 2992025-12-05 15:09:26.689 | Rx : 01 04 08 00 00 00 00 00 00 00 00 24 0d

**********************************************2025-12-05 15:09:27.217

TxPackets: 3012025-12-05 15:09:27.217 | Tx : 01 04 00 00 00 04 f1 c9
RxPackets: 3002025-12-05 15:09:27.217 | Rx : 01 04 08 00 00 00 00 00 00 00 00 24 0d
TxPackets: 3022025-12-05 15:09:27.747 | Tx : 01 04 00 00 00 04 f1 c9
RxPackets: 3012025-12-05 15:09:27.747 | Rx : 01 04 08 00 00 00 00 00 00 00 00 24 0d

**********************************************2025-12-05 15:11:08.242

TxPackets: 12025-12-05 15:11:08.242 | Tx : 01 04 00 00 00 02 71 cb
RxPackets: 02025-12-05 15:11:08.242 | Rx : 01 04 04 00 00 00 00 fb 84
TxPackets: 22025-12-05 15:11:08.352 | Tx : 01 04 00 00 00 02 71 cb
RxPackets: 12025-12-05 15:11:08.352 | Rx : 01 04 04 00 00 00 00 fb 84

**********************************************2025-12-05 15:12:30.291

TxPackets: 1 2025-12-05 15:12:30.291 | Tx : 01 04 00 00 00 04 f1 c9
RxPackets: 0 2025-12-05 15:12:30.291 | Rx : 01 04 08 00 00 00 00 00 00 00 00 24 0d

**********************************************2025-12-05 15:16:10.628

TxPackets: 1 2025-12-05 15:16:10.628 | Tx : 01 04 00 17 00 04 41 cd
RxPackets: 0 2025-12-05 15:16:10.628 | Rx : 01 04 08 b9 05 00 00 18 00 00 00 bc b3
TxPackets: 2 2025-12-05 15:16:40.667 | Tx : 01 04 00 17 00 04 41 cd
RxPackets: 1 2025-12-05 15:16:40.667 | Rx : 01 04 08 d7 05 00 00 18 00 00 00 3b 17

**********************************************2025-12-05 15:16:41.188

TxPackets: 3 2025-12-05 15:16:41.188 | Tx : 01 04 00 17 00 04 41 cd
RxPackets: 2 2025-12-05 15:16:41.188 | Rx : 01 04 08 d8 05 00 00 18 00 00 00 7b 57
TxPackets: 4 2025-12-05 15:16:41.708 | Tx : 01 04 00 17 00 04 41 cd
RxPackets: 3 2025-12-05 15:16:41.708 | Rx : 01 04 08 d8 05 00 00 18 00 00 00 7b 57

**********************************************2025-12-05 15:16:42.238

TxPackets: 5 2025-12-05 15:16:42.238 | Tx : 01 04 00 17 00 04 41 cd
RxPackets: 4 2025-12-05 15:16:42.238 | Rx : 01 04 08 d9 05 00 00 18 00 00 00 ba 9b
TxPackets: 6 2025-12-05 15:16:42.779 | Tx : 01 04 00 17 00 04 41 cd
RxPackets: 5 2025-12-05 15:16:42.779 | Rx : 01 04 08 da 05 00 00 18 00 00 00 fa 8e

**********************************************2025-12-05 15:16:43.301

TxPackets: 7 2025-12-05 15:16:43.301 | Tx : 01 04 00 17 00 04 41 cd
RxPackets: 6 2025-12-05 15:16:43.301 | Rx : 01 04 08 da 05 00 00 18 00 00 00 fa 8e
TxPackets: 8 2025-12-05 15:16:43.830 | Tx : 01 04 00 17 00 04 41 cd
RxPackets: 7 2025-12-05 15:16:43.830 | Rx : 01 04 08 db 05 00 00 18 00 00 00 3b 42

**********************************************2025-12-05 15:16:44.348

TxPackets: 9 2025-12-05 15:16:44.348 | Tx : 01 04 00 17 00 04 41 cd
RxPackets: 8 2025-12-05 15:16:44.348 | Rx : 01 04 08 db 05 00 00 18 00 00 00 3b 42
TxPackets: 10 2025-12-05 15:16:44.878 | Tx : 01 04 00 17 00 04 41 cd
RxPackets: 9 2025-12-05 15:16:44.878 | Rx : 01 04 08 00 00 00 00 18 00 00 00 22 ad

**********************************************2025-12-05 15:16:45.398

TxPackets: 11 2025-12-05 15:16:45.398 | Tx : 01 04 00 17 00 04 41 cd
RxPackets: 10 2025-12-05 15:16:45.398 | Rx : 01 04 08 00 00 00 00 18 00 00 00 22 ad
TxPackets: 12 2025-12-05 15:16:45.917 | Tx : 01 04 00 17 00 04 41 cd
RxPackets: 11 2025-12-05 15:16:45.917 | Rx : 01 04 08 01 00 00 00 18 00 00 00 e3 61

**********************************************2025-12-05 15:16:46.437

TxPackets: 13 2025-12-05 15:16:46.437 | Tx : 01 04 00 17 00 04 41 cd
RxPackets: 12 2025-12-05 15:16:46.437 | Rx : 01 04 08 01 00 00 00 18 00 00 00 e3 61
TxPackets: 14 2025-12-05 15:16:46.958 | Tx : 01 04 00 17 00 04 41 cd
RxPackets: 13 2025-12-05 15:16:46.958 | Rx : 01 04 08 02 00 00 00 18 00 00 00 a3 74

**********************************************2025-12-05 15:16:47.477

TxPackets: 15 2025-12-05 15:16:47.477 | Tx : 01 04 00 17 00 04 41 cd
RxPackets: 14 2025-12-05 15:16:47.477 | Rx : 01 04 08 02 00 00 00 18 00 00 00 a3 74
TxPackets: 16 2025-12-05 15:16:48.007 | Tx : 01 04 00 17 00 04 41 cd
RxPackets: 15 2025-12-05 15:16:48.007 | Rx : 01 04 08 03 00 00 00 18 00 00 00 62 b8

**********************************************2025-12-05 15:17:23.899

TxPackets: 17 2025-12-05 15:17:23.899 | Tx : 01 04 00 17 00 04 41 cd
RxPackets: 16 2025-12-05 15:17:23.899 | Rx : 01 04 08 27 00 00 00 18 00 00 00 61 53
TxPackets: 18 2025-12-05 15:17:24.917 | Tx : 01 04 00 17 00 04 41 cd
RxPackets: 17 2025-12-05 15:17:24.917 | Rx : 01 04 08 28 00 00 00 18 00 00 00 21 13

**********************************************2025-12-05 15:17:25.939

TxPackets: 19 2025-12-05 15:17:25.939 | Tx : 01 04 00 17 00 04 41 cd
RxPackets: 18 2025-12-05 15:17:25.939 | Rx : 01 04 08 29 00 00 00 18 00 00 00 e0 df
TxPackets: 20 2025-12-05 15:17:26.958 | Tx : 01 04 00 17 00 04 41 cd
RxPackets: 19 2025-12-05 15:17:26.958 | Rx : 01 04 08 2a 00 00 00 18 00 00 00 a0 ca

**********************************************2025-12-05 15:17:27.980

TxPackets: 21 2025-12-05 15:17:27.979 | Tx : 01 04 00 17 00 04 41 cd
RxPackets: 20 2025-12-05 15:17:27.979 | Rx : 01 04 08 2b 00 00 00 18 00 00 00 61 06
TxPackets: 22 2025-12-05 15:17:28.998 | Tx : 01 04 00 17 00 04 41 cd
RxPackets: 21 2025-12-05 15:17:28.998 | Rx : 01 04 08 2c 00 00 00 18 00 00 00 20 e0

**********************************************2025-12-05 15:17:30.028

TxPackets: 23 2025-12-05 15:17:30.028 | Tx : 01 04 00 17 00 04 41 cd
RxPackets: 22 2025-12-05 15:17:30.028 | Rx : 01 04 08 2d 00 00 00 18 00 00 00 e1 2c
TxPackets: 24 2025-12-05 15:17:31.052 | Tx : 01 04 00 17 00 04 41 cd
RxPackets: 23 2025-12-05 15:17:31.052 | Rx : 01 04 08 2e 00 00 00 18 00 00 00 a1 39

**********************************************2025-12-05 15:17:32.088

TxPackets: 25 2025-12-05 15:17:32.088 | Tx : 01 04 00 17 00 04 41 cd
RxPackets: 24 2025-12-05 15:17:32.088 | Rx : 01 04 08 2f 00 00 00 18 00 00 00 60 f5
TxPackets: 26 2025-12-05 15:17:33.108 | Tx : 01 04 00 17 00 04 41 cd
RxPackets: 25 2025-12-05 15:17:33.108 | Rx : 01 04 08 30 00 00 00 18 00 00 00 21 b9

**********************************************2025-12-05 15:17:34.139

TxPackets: 27 2025-12-05 15:17:34.139 | Tx : 01 04 00 17 00 04 41 cd
RxPackets: 26 2025-12-05 15:17:34.139 | Rx : 01 04 08 31 00 00 00 18 00 00 00 e0 75
TxPackets: 28 2025-12-05 15:17:35.158 | Tx : 01 04 00 17 00 04 41 cd
RxPackets: 27 2025-12-05 15:17:35.158 | Rx : 01 04 08 32 00 00 00 18 00 00 00 a0 60

**********************************************2025-12-05 15:17:36.182

TxPackets: 29 2025-12-05 15:17:36.182 | Tx : 01 04 00 17 00 04 41 cd
RxPackets: 28 2025-12-05 15:17:36.182 | Rx : 01 04 08 33 00 00 00 18 00 00 00 61 ac
TxPackets: 30 2025-12-05 15:17:37.198 | Tx : 01 04 00 17 00 04 41 cd
RxPackets: 29 2025-12-05 15:17:37.198 | Rx : 01 04 08 34 00 00 00 18 00 00 00 20 4a

**********************************************2025-12-05 15:17:38.252

TxPackets: 31 2025-12-05 15:17:38.252 | Tx : 01 04 00 17 00 04 41 cd
RxPackets: 30 2025-12-05 15:17:38.252 | Rx : 01 04 08 35 00 00 00 18 00 00 00 e1 86
TxPackets: 32 2025-12-05 15:17:39.280 | Tx : 01 04 00 17 00 04 41 cd
RxPackets: 31 2025-12-05 15:17:39.280 | Rx : 01 04 08 36 00 00 00 18 00 00 00 a1 93

**********************************************2025-12-05 15:17:40.300

TxPackets: 33 2025-12-05 15:17:40.300 | Tx : 01 04 00 17 00 04 41 cd
RxPackets: 32 2025-12-05 15:17:40.300 | Rx : 01 04 08 37 00 00 00 18 00 00 00 60 5f
TxPackets: 34 2025-12-05 15:17:41.339 | Tx : 01 04 00 17 00 04 41 cd
RxPackets: 33 2025-12-05 15:17:41.339 | Rx : 01 04 08 38 00 00 00 18 00 00 00 20 1f

**********************************************2025-12-05 15:17:42.388

TxPackets: 35 2025-12-05 15:17:42.388 | Tx : 01 04 00 17 00 04 41 cd
RxPackets: 34 2025-12-05 15:17:42.388 | Rx : 01 04 08 39 00 00 00 18 00 00 00 e1 d3
TxPackets: 36 2025-12-05 15:17:43.409 | Tx : 01 04 00 17 00 04 41 cd
RxPackets: 35 2025-12-05 15:17:43.409 | Rx : 01 04 08 3a 00 00 00 18 00 00 00 a1 c6

**********************************************2025-12-05 15:17:44.508

TxPackets: 37 2025-12-05 15:17:44.508 | Tx : 01 04 00 17 00 04 41 cd
RxPackets: 36 2025-12-05 15:17:44.508 | Rx : 01 04 08 3b 00 00 00 18 00 00 00 60 0a
TxPackets: 38 2025-12-05 15:17:45.535 | Tx : 01 04 00 17 00 04 41 cd
RxPackets: 37 2025-12-05 15:17:45.536 | Rx : 01 04 08 3c 00 00 00 18 00 00 00 21 ec

**********************************************2025-12-05 15:17:46.579

TxPackets: 39 2025-12-05 15:17:46.579 | Tx : 01 04 00 17 00 04 41 cd
RxPackets: 38 2025-12-05 15:17:46.579 | Rx : 01 04 08 3d 00 00 00 18 00 00 00 e0 20
TxPackets: 40 2025-12-05 15:17:47.607 | Tx : 01 04 00 17 00 04 41 cd
RxPackets: 39 2025-12-05 15:17:47.607 | Rx : 01 04 08 3e 00 00 00 18 00 00 00 a0 35

**********************************************2025-12-05 15:17:48.639

TxPackets: 41 2025-12-05 15:17:48.639 | Tx : 01 04 00 17 00 04 41 cd
RxPackets: 40 2025-12-05 15:17:48.639 | Rx : 01 04 08 3f 00 00 00 18 00 00 00 61 f9
TxPackets: 42 2025-12-05 15:17:49.668 | Tx : 01 04 00 17 00 04 41 cd
RxPackets: 41 2025-12-05 15:17:49.668 | Rx : 01 04 08 40 00 00 00 18 00 00 00 26 9d

**********************************************2025-12-05 15:17:50.699

TxPackets: 43 2025-12-05 15:17:50.699 | Tx : 01 04 00 17 00 04 41 cd
RxPackets: 42 2025-12-05 15:17:50.699 | Rx : 01 04 08 41 00 00 00 18 00 00 00 e7 51
TxPackets: 44 2025-12-05 15:17:51.720 | Tx : 01 04 00 17 00 04 41 cd
RxPackets: 43 2025-12-05 15:17:51.720 | Rx : 01 04 08 42 00 00 00 18 00 00 00 a7 44

**********************************************2025-12-05 15:17:52.739

TxPackets: 45 2025-12-05 15:17:52.739 | Tx : 01 04 00 17 00 04 41 cd
RxPackets: 44 2025-12-05 15:17:52.739 | Rx : 01 04 08 43 00 00 00 18 00 00 00 66 88
TxPackets: 46 2025-12-05 15:17:53.782 | Tx : 01 04 00 17 00 04 41 cd
RxPackets: 45 2025-12-05 15:17:53.782 | Rx : 01 04 08 44 00 00 00 18 00 00 00 27 6e

**********************************************2025-12-05 15:17:54.860

TxPackets: 47 2025-12-05 15:17:54.860 | Tx : 01 04 00 17 00 04 41 cd
RxPackets: 46 2025-12-05 15:17:54.860 | Rx : 01 04 08 45 00 00 00 18 00 00 00 e6 a2
TxPackets: 48 2025-12-05 15:17:55.888 | Tx : 01 04 00 17 00 04 41 cd
RxPackets: 47 2025-12-05 15:17:55.889 | Rx : 01 04 08 46 00 00 00 18 00 00 00 a6 b7

**********************************************2025-12-05 15:17:56.919

TxPackets: 49 2025-12-05 15:17:56.919 | Tx : 01 04 00 17 00 04 41 cd
RxPackets: 48 2025-12-05 15:17:56.919 | Rx : 01 04 08 47 00 00 00 18 00 00 00 67 7b
TxPackets: 50 2025-12-05 15:17:57.949 | Tx : 01 04 00 17 00 04 41 cd
RxPackets: 49 2025-12-05 15:17:57.949 | Rx : 01 04 08 49 00 00 00 18 00 00 00 e6 f7

**********************************************2025-12-05 15:17:58.968

TxPackets: 51 2025-12-05 15:17:58.968 | Tx : 01 04 00 17 00 04 41 cd
RxPackets: 50 2025-12-05 15:17:58.968 | Rx : 01 04 08 4a 00 00 00 18 00 00 00 a6 e2
TxPackets: 52 2025-12-05 15:17:59.988 | Tx : 01 04 00 17 00 04 41 cd
RxPackets: 51 2025-12-05 15:17:59.988 | Rx : 01 04 08 4b 00 00 00 18 00 00 00 67 2e

**********************************************2025-12-05 15:18:01.019

TxPackets: 53 2025-12-05 15:18:01.019 | Tx : 01 04 00 17 00 04 41 cd
RxPackets: 52 2025-12-05 15:18:01.019 | Rx : 01 04 08 4c 00 00 00 18 00 00 00 26 c8
TxPackets: 54 2025-12-05 15:18:02.040 | Tx : 01 04 00 17 00 04 41 cd
RxPackets: 53 2025-12-05 15:18:02.040 | Rx : 01 04 08 4d 00 00 00 18 00 00 00 e7 04

**********************************************2025-12-05 15:18:03.069

TxPackets: 55 2025-12-05 15:18:03.069 | Tx : 01 04 00 17 00 04 41 cd
RxPackets: 54 2025-12-05 15:18:03.069 | Rx : 01 04 08 4e 00 00 00 18 00 00 00 a7 11
TxPackets: 56 2025-12-05 15:18:04.089 | Tx : 01 04 00 17 00 04 41 cd
RxPackets: 55 2025-12-05 15:18:04.089 | Rx : 01 04 08 4f 00 00 00 18 00 00 00 66 dd

**********************************************2025-12-05 15:18:05.116

TxPackets: 57 2025-12-05 15:18:05.116 | Tx : 01 04 00 17 00 04 41 cd
RxPackets: 56 2025-12-05 15:18:05.116 | Rx : 01 04 08 50 00 00 00 18 00 00 00 27 91
TxPackets: 58 2025-12-05 15:18:06.149 | Tx : 01 04 00 17 00 04 41 cd
RxPackets: 57 2025-12-05 15:18:06.149 | Rx : 01 04 08 51 00 00 00 18 00 00 00 e6 5d

**********************************************2025-12-05 15:18:07.181

TxPackets: 59 2025-12-05 15:18:07.181 | Tx : 01 04 00 17 00 04 41 cd
RxPackets: 58 2025-12-05 15:18:07.181 | Rx : 01 04 08 52 00 00 00 18 00 00 00 a6 48
TxPackets: 60 2025-12-05 15:18:08.196 | Tx : 01 04 00 17 00 04 41 cd
RxPackets: 59 2025-12-05 15:18:08.196 | Rx : 01 04 08 53 00 00 00 18 00 00 00 67 84

**********************************************2025-12-05 15:18:09.220

TxPackets: 61 2025-12-05 15:18:09.220 | Tx : 01 04 00 17 00 04 41 cd
RxPackets: 60 2025-12-05 15:18:09.220 | Rx : 01 04 08 54 00 00 00 18 00 00 00 26 62
TxPackets: 62 2025-12-05 15:18:10.252 | Tx : 01 04 00 17 00 04 41 cd
RxPackets: 61 2025-12-05 15:18:10.252 | Rx : 01 04 08 55 00 00 00 18 00 00 00 e7 ae

**********************************************2025-12-05 15:18:11.290

TxPackets: 63 2025-12-05 15:18:11.290 | Tx : 01 04 00 17 00 04 41 cd
RxPackets: 62 2025-12-05 15:18:11.290 | Rx : 01 04 08 56 00 00 00 18 00 00 00 a7 bb
TxPackets: 64 2025-12-05 15:18:12.317 | Tx : 01 04 00 17 00 04 41 cd
RxPackets: 63 2025-12-05 15:18:12.317 | Rx : 01 04 08 57 00 00 00 18 00 00 00 66 77

**********************************************2025-12-05 15:18:13.348

TxPackets: 65 2025-12-05 15:18:13.347 | Tx : 01 04 00 17 00 04 41 cd
RxPackets: 64 2025-12-05 15:18:13.348 | Rx : 01 04 08 58 00 00 00 18 00 00 00 26 37
TxPackets: 66 2025-12-05 15:18:14.388 | Tx : 01 04 00 17 00 04 41 cd
RxPackets: 65 2025-12-05 15:18:14.388 | Rx : 01 04 08 59 00 00 00 18 00 00 00 e7 fb

**********************************************2025-12-05 15:18:15.440

TxPackets: 67 2025-12-05 15:18:15.440 | Tx : 01 04 00 17 00 04 41 cd
RxPackets: 66 2025-12-05 15:18:15.440 | Rx : 01 04 08 5a 00 00 00 18 00 00 00 a7 ee
TxPackets: 68 2025-12-05 15:18:16.470 | Tx : 01 04 00 17 00 04 41 cd
RxPackets: 67 2025-12-05 15:18:16.470 | Rx : 01 04 08 5b 00 00 00 18 00 00 00 66 22

**********************************************2025-12-05 15:18:17.498

TxPackets: 69 2025-12-05 15:18:17.498 | Tx : 01 04 00 17 00 04 41 cd
RxPackets: 68 2025-12-05 15:18:17.498 | Rx : 01 04 08 5c 00 00 00 18 00 00 00 27 c4
TxPackets: 70 2025-12-05 15:18:18.527 | Tx : 01 04 00 17 00 04 41 cd
RxPackets: 69 2025-12-05 15:18:18.527 | Rx : 01 04 08 5d 00 00 00 18 00 00 00 e6 08

**********************************************2025-12-05 15:18:19.560

TxPackets: 71 2025-12-05 15:18:19.560 | Tx : 01 04 00 17 00 04 41 cd
RxPackets: 70 2025-12-05 15:18:19.560 | Rx : 01 04 08 5e 00 00 00 18 00 00 00 a6 1d
TxPackets: 72 2025-12-05 15:18:20.587 | Tx : 01 04 00 17 00 04 41 cd
RxPackets: 71 2025-12-05 15:18:20.587 | Rx : 01 04 08 5f 00 00 00 18 00 00 00 67 d1

**********************************************2025-12-05 15:18:21.711

TxPackets: 73 2025-12-05 15:18:21.711 | Tx : 01 04 00 17 00 04 41 cd
RxPackets: 72 2025-12-05 15:18:21.711 | Rx : 01 04 08 60 00 00 00 18 00 00 00 24 85
TxPackets: 74 2025-12-05 15:18:22.747 | Tx : 01 04 00 17 00 04 41 cd
RxPackets: 73 2025-12-05 15:18:22.747 | Rx : 01 04 08 61 00 00 00 18 00 00 00 e5 49

**********************************************2025-12-05 15:18:23.787

TxPackets: 75 2025-12-05 15:18:23.787 | Tx : 01 04 00 17 00 04 41 cd
RxPackets: 74 2025-12-05 15:18:23.787 | Rx : 01 04 08 62 00 00 00 18 00 00 00 a5 5c
TxPackets: 76 2025-12-05 15:18:24.809 | Tx : 01 04 00 17 00 04 41 cd
RxPackets: 75 2025-12-05 15:18:24.809 | Rx : 01 04 08 63 00 00 00 18 00 00 00 64 90

**********************************************2025-12-05 15:18:26.313

TxPackets: 77 2025-12-05 15:18:26.313 | Tx : 01 04 00 17 00 04 41 cd
RxPackets: 76 2025-12-05 15:18:26.313 | Rx : 01 04 08 65 00 00 00 18 00 00 00 e4 ba
TxPackets: 78 2025-12-05 15:18:27.970 | Tx : 01 04 00 17 00 04 41 cd
RxPackets: 77 2025-12-05 15:18:27.971 | Rx : 01 04 08 66 00 00 00 18 00 00 00 a4 af

**********************************************2025-12-05 15:18:29.636

TxPackets: 79 2025-12-05 15:18:29.636 | Tx : 01 04 00 17 00 04 41 cd
RxPackets: 78 2025-12-05 15:18:29.636 | Rx : 01 04 08 68 00 00 00 18 00 00 00 25 23
TxPackets: 80 2025-12-05 15:18:31.292 | Tx : 01 04 00 17 00 04 41 cd
RxPackets: 79 2025-12-05 15:18:31.292 | Rx : 01 04 08 6a 00 00 00 18 00 00 00 a4 fa

**********************************************2025-12-05 15:18:32.979

TxPackets: 81 2025-12-05 15:18:32.979 | Tx : 01 04 00 17 00 04 41 cd
RxPackets: 80 2025-12-05 15:18:32.979 | Rx : 01 04 08 6b 00 00 00 18 00 00 00 65 36
TxPackets: 82 2025-12-05 15:18:34.619 | Tx : 01 04 00 17 00 04 41 cd
RxPackets: 81 2025-12-05 15:18:34.619 | Rx : 01 04 08 6d 00 00 00 18 00 00 00 e5 1c

**********************************************2025-12-05 15:18:36.255

TxPackets: 83 2025-12-05 15:18:36.255 | Tx : 01 04 00 17 00 04 41 cd
RxPackets: 82 2025-12-05 15:18:36.255 | Rx : 01 04 08 6f 00 00 00 18 00 00 00 64 c5
TxPackets: 84 2025-12-05 15:18:37.892 | Tx : 01 04 00 17 00 04 41 cd
RxPackets: 83 2025-12-05 15:18:37.892 | Rx : 01 04 08 70 00 00 00 18 00 00 00 25 89

**********************************************2025-12-05 15:18:39.547

TxPackets: 85 2025-12-05 15:18:39.547 | Tx : 01 04 00 17 00 04 41 cd
RxPackets: 84 2025-12-05 15:18:39.547 | Rx : 01 04 08 72 00 00 00 18 00 00 00 a4 50
TxPackets: 86 2025-12-05 15:18:41.175 | Tx : 01 04 00 17 00 04 41 cd
RxPackets: 85 2025-12-05 15:18:41.175 | Rx : 01 04 08 74 00 00 00 18 00 00 00 24 7a

**********************************************2025-12-05 15:18:42.864

TxPackets: 87 2025-12-05 15:18:42.864 | Tx : 01 04 00 17 00 04 41 cd
RxPackets: 86 2025-12-05 15:18:42.864 | Rx : 01 04 08 75 00 00 00 18 00 00 00 e5 b6
TxPackets: 88 2025-12-05 15:18:44.526 | Tx : 01 04 00 17 00 04 41 cd
RxPackets: 87 2025-12-05 15:18:44.526 | Rx : 01 04 08 77 00 00 00 18 00 00 00 64 6f

**********************************************2025-12-05 15:18:46.184

TxPackets: 89 2025-12-05 15:18:46.183 | Tx : 01 04 00 17 00 04 41 cd
RxPackets: 88 2025-12-05 15:18:46.184 | Rx : 01 04 08 79 00 00 00 18 00 00 00 e5 e3
TxPackets: 90 2025-12-05 15:18:47.825 | Tx : 01 04 00 17 00 04 41 cd
RxPackets: 89 2025-12-05 15:18:47.825 | Rx : 01 04 08 7a 00 00 00 18 00 00 00 a5 f6

**********************************************2025-12-05 15:18:49.514

TxPackets: 91 2025-12-05 15:18:49.514 | Tx : 01 04 00 17 00 04 41 cd
RxPackets: 90 2025-12-05 15:18:49.514 | Rx : 01 04 08 7c 00 00 00 18 00 00 00 25 dc
TxPackets: 92 2025-12-05 15:18:51.203 | Tx : 01 04 00 17 00 04 41 cd
RxPackets: 91 2025-12-05 15:18:51.203 | Rx : 01 04 08 7e 00 00 00 18 00 00 00 a4 05

**********************************************2025-12-05 15:18:52.910

TxPackets: 93 2025-12-05 15:18:52.910 | Tx : 01 04 00 17 00 04 41 cd
RxPackets: 92 2025-12-05 15:18:52.910 | Rx : 01 04 08 7f 00 00 00 18 00 00 00 65 c9
TxPackets: 94 2025-12-05 15:18:54.618 | Tx : 01 04 00 17 00 04 41 cd
RxPackets: 93 2025-12-05 15:18:54.618 | Rx : 01 04 08 81 00 00 00 18 00 00 00 eb 01

**********************************************2025-12-05 15:18:56.329

TxPackets: 95 2025-12-05 15:18:56.329 | Tx : 01 04 00 17 00 04 41 cd
RxPackets: 94 2025-12-05 15:18:56.329 | Rx : 01 04 08 83 00 00 00 18 00 00 00 6a d8
TxPackets: 96 2025-12-05 15:18:57.920 | Tx : 01 04 00 17 00 04 41 cd
RxPackets: 95 2025-12-05 15:18:57.920 | Rx : 01 04 08 84 00 00 00 18 00 00 00 2b 3e

**********************************************2025-12-05 15:18:59.088

TxPackets: 97 2025-12-05 15:18:59.088 | Tx : 01 04 00 17 00 04 41 cd
RxPackets: 96 2025-12-05 15:18:59.088 | Rx : 01 04 08 86 00 00 00 18 00 00 00 aa e7
TxPackets: 98 2025-12-05 15:19:00.109 | Tx : 01 04 00 17 00 04 41 cd
RxPackets: 97 2025-12-05 15:19:00.109 | Rx : 01 04 08 87 00 00 00 18 00 00 00 6b 2b

**********************************************2025-12-05 15:19:01.129

TxPackets: 99 2025-12-05 15:19:01.128 | Tx : 01 04 00 17 00 04 41 cd
RxPackets: 98 2025-12-05 15:19:01.129 | Rx : 01 04 08 88 00 00 00 18 00 00 00 2b 6b
TxPackets: 100 2025-12-05 15:19:02.158 | Tx : 01 04 00 17 00 04 41 cd
RxPackets: 99 2025-12-05 15:19:02.159 | Rx : 01 04 08 89 00 00 00 18 00 00 00 ea a7

**********************************************2025-12-05 15:19:03.178

TxPackets: 101 2025-12-05 15:19:03.178 | Tx : 01 04 00 17 00 04 41 cd
RxPackets: 100 2025-12-05 15:19:03.178 | Rx : 01 04 08 8a 00 00 00 18 00 00 00 aa b2
TxPackets: 102 2025-12-05 15:19:04.199 | Tx : 01 04 00 17 00 04 41 cd
RxPackets: 101 2025-12-05 15:19:04.199 | Rx : 01 04 08 8b 00 00 00 18 00 00 00 6b 7e

**********************************************2025-12-05 15:19:05.229

TxPackets: 103 2025-12-05 15:19:05.229 | Tx : 01 04 00 17 00 04 41 cd
RxPackets: 102 2025-12-05 15:19:05.229 | Rx : 01 04 08 8c 00 00 00 18 00 00 00 2a 98
TxPackets: 104 2025-12-05 15:19:06.249 | Tx : 01 04 00 17 00 04 41 cd
RxPackets: 103 2025-12-05 15:19:06.249 | Rx : 01 04 08 8d 00 00 00 18 00 00 00 eb 54

**********************************************2025-12-05 15:19:07.268

TxPackets: 105 2025-12-05 15:19:07.268 | Tx : 01 04 00 17 00 04 41 cd
RxPackets: 104 2025-12-05 15:19:07.268 | Rx : 01 04 08 8e 00 00 00 18 00 00 00 ab 41
TxPackets: 106 2025-12-05 15:19:08.428 | Tx : 01 04 00 17 00 04 41 cd
RxPackets: 105 2025-12-05 15:19:08.428 | Rx : 01 04 08 8f 00 00 00 18 00 00 00 6a 8d

**********************************************2025-12-05 15:19:09.448

TxPackets: 107 2025-12-05 15:19:09.448 | Tx : 01 04 00 17 00 04 41 cd
RxPackets: 106 2025-12-05 15:19:09.448 | Rx : 01 04 08 90 00 00 00 18 00 00 00 2b c1
TxPackets: 108 2025-12-05 15:19:10.478 | Tx : 01 04 00 17 00 04 41 cd
RxPackets: 107 2025-12-05 15:19:10.478 | Rx : 01 04 08 91 00 00 00 18 00 00 00 ea 0d

**********************************************2025-12-05 15:19:11.498

TxPackets: 109 2025-12-05 15:19:11.498 | Tx : 01 04 00 17 00 04 41 cd
RxPackets: 108 2025-12-05 15:19:11.498 | Rx : 01 04 08 92 00 00 00 18 00 00 00 aa 18
TxPackets: 110 2025-12-05 15:19:12.529 | Tx : 01 04 00 17 00 04 41 cd
RxPackets: 109 2025-12-05 15:19:12.529 | Rx : 01 04 08 93 00 00 00 18 00 00 00 6b d4

**********************************************2025-12-05 15:19:13.551

TxPackets: 111 2025-12-05 15:19:13.551 | Tx : 01 04 00 17 00 04 41 cd
RxPackets: 110 2025-12-05 15:19:13.551 | Rx : 01 04 08 94 00 00 00 18 00 00 00 2a 32
TxPackets: 112 2025-12-05 15:19:14.608 | Tx : 01 04 00 17 00 04 41 cd
RxPackets: 111 2025-12-05 15:19:14.608 | Rx : 01 04 08 95 00 00 00 18 00 00 00 eb fe

**********************************************2025-12-05 15:19:15.629

TxPackets: 113 2025-12-05 15:19:15.629 | Tx : 01 04 00 17 00 04 41 cd
RxPackets: 112 2025-12-05 15:19:15.629 | Rx : 01 04 08 96 00 00 00 18 00 00 00 ab eb
TxPackets: 114 2025-12-05 15:19:16.658 | Tx : 01 04 00 17 00 04 41 cd
RxPackets: 113 2025-12-05 15:19:16.658 | Rx : 01 04 08 97 00 00 00 18 00 00 00 6a 27

**********************************************2025-12-05 15:19:17.688

TxPackets: 115 2025-12-05 15:19:17.688 | Tx : 01 04 00 17 00 04 41 cd
RxPackets: 114 2025-12-05 15:19:17.688 | Rx : 01 04 08 98 00 00 00 18 00 00 00 2a 67
TxPackets: 116 2025-12-05 15:19:18.709 | Tx : 01 04 00 17 00 04 41 cd
RxPackets: 115 2025-12-05 15:19:18.709 | Rx : 01 04 08 99 00 00 00 18 00 00 00 eb ab

**********************************************2025-12-05 15:19:19.838

TxPackets: 117 2025-12-05 15:19:19.838 | Tx : 01 04 00 17 00 04 41 cd
RxPackets: 116 2025-12-05 15:19:19.838 | Rx : 01 04 08 9a 00 00 00 18 00 00 00 ab be
TxPackets: 118 2025-12-05 15:19:20.870 | Tx : 01 04 00 17 00 04 41 cd
RxPackets: 117 2025-12-05 15:19:20.870 | Rx : 01 04 08 9b 00 00 00 18 00 00 00 6a 72

**********************************************2025-12-05 15:19:21.891

TxPackets: 119 2025-12-05 15:19:21.891 | Tx : 01 04 00 17 00 04 41 cd
RxPackets: 118 2025-12-05 15:19:21.891 | Rx : 01 04 08 9c 00 00 00 18 00 00 00 2b 94
TxPackets: 120 2025-12-05 15:19:22.929 | Tx : 01 04 00 17 00 04 41 cd
RxPackets: 119 2025-12-05 15:19:22.930 | Rx : 01 04 08 9d 00 00 00 18 00 00 00 ea 58

**********************************************2025-12-05 15:19:23.978

TxPackets: 121 2025-12-05 15:19:23.978 | Tx : 01 04 00 17 00 04 41 cd
RxPackets: 120 2025-12-05 15:19:23.978 | Rx : 01 04 08 9e 00 00 00 18 00 00 00 aa 4d
TxPackets: 122 2025-12-05 15:19:25.019 | Tx : 01 04 00 17 00 04 41 cd
RxPackets: 121 2025-12-05 15:19:25.019 | Rx : 01 04 08 9f 00 00 00 18 00 00 00 6b 81

**********************************************2025-12-05 15:19:26.060

TxPackets: 123 2025-12-05 15:19:26.060 | Tx : 01 04 00 17 00 04 41 cd
RxPackets: 122 2025-12-05 15:19:26.060 | Rx : 01 04 08 a0 00 00 00 18 00 00 00 28 d5
TxPackets: 124 2025-12-05 15:19:27.081 | Tx : 01 04 00 17 00 04 41 cd
RxPackets: 123 2025-12-05 15:19:27.081 | Rx : 01 04 08 a1 00 00 00 18 00 00 00 e9 19

**********************************************2025-12-05 15:19:28.134

TxPackets: 125 2025-12-05 15:19:28.134 | Tx : 01 04 00 17 00 04 41 cd
RxPackets: 124 2025-12-05 15:19:28.134 | Rx : 01 04 08 a3 00 00 00 18 00 00 00 68 c0
TxPackets: 126 2025-12-05 15:19:29.178 | Tx : 01 04 00 17 00 04 41 cd
RxPackets: 125 2025-12-05 15:19:29.178 | Rx : 01 04 08 a4 00 00 00 18 00 00 00 29 26

**********************************************2025-12-05 15:19:30.209

TxPackets: 127 2025-12-05 15:19:30.209 | Tx : 01 04 00 17 00 04 41 cd
RxPackets: 126 2025-12-05 15:19:30.209 | Rx : 01 04 08 a5 00 00 00 18 00 00 00 e8 ea
TxPackets: 128 2025-12-05 15:19:31.258 | Tx : 01 04 00 17 00 04 41 cd
RxPackets: 127 2025-12-05 15:19:31.258 | Rx : 01 04 08 a6 00 00 00 18 00 00 00 a8 ff

**********************************************2025-12-05 15:19:32.279

TxPackets: 129 2025-12-05 15:19:32.279 | Tx : 01 04 00 17 00 04 41 cd
RxPackets: 128 2025-12-05 15:19:32.279 | Rx : 01 04 08 a7 00 00 00 18 00 00 00 69 33
TxPackets: 130 2025-12-05 15:19:33.297 | Tx : 01 04 00 17 00 04 41 cd
RxPackets: 129 2025-12-05 15:19:33.297 | Rx : 01 04 08 a8 00 00 00 18 00 00 00 29 73

**********************************************2025-12-05 15:19:34.752

TxPackets: 131 2025-12-05 15:19:34.752 | Tx : 01 04 00 17 00 04 41 cd
RxPackets: 130 2025-12-05 15:19:34.752 | Rx : 01 04 08 a9 00 00 00 18 00 00 00 e8 bf
TxPackets: 132 2025-12-05 15:19:36.409 | Tx : 01 04 00 17 00 04 41 cd
RxPackets: 131 2025-12-05 15:19:36.409 | Rx : 01 04 08 ab 00 00 00 18 00 00 00 69 66

**********************************************2025-12-05 15:19:38.039

TxPackets: 133 2025-12-05 15:19:38.039 | Tx : 01 04 00 17 00 04 41 cd
RxPackets: 132 2025-12-05 15:19:38.039 | Rx : 01 04 08 ac 00 00 00 18 00 00 00 28 80
TxPackets: 134 2025-12-05 15:19:39.684 | Tx : 01 04 00 17 00 04 41 cd
RxPackets: 133 2025-12-05 15:19:39.684 | Rx : 01 04 08 ae 00 00 00 18 00 00 00 a9 59

**********************************************2025-12-05 15:19:41.309

TxPackets: 135 2025-12-05 15:19:41.309 | Tx : 01 04 00 17 00 04 41 cd
RxPackets: 134 2025-12-05 15:19:41.309 | Rx : 01 04 08 b0 00 00 00 18 00 00 00 29 d9
TxPackets: 136 2025-12-05 15:19:42.945 | Tx : 01 04 00 17 00 04 41 cd
RxPackets: 135 2025-12-05 15:19:42.945 | Rx : 01 04 08 b1 00 00 00 18 00 00 00 e8 15

**********************************************2025-12-05 15:19:44.646

TxPackets: 137 2025-12-05 15:19:44.646 | Tx : 01 04 00 17 00 04 41 cd
RxPackets: 136 2025-12-05 15:19:44.646 | Rx : 01 04 08 b3 00 00 00 18 00 00 00 69 cc
TxPackets: 138 2025-12-05 15:19:46.286 | Tx : 01 04 00 17 00 04 41 cd
RxPackets: 137 2025-12-05 15:19:46.286 | Rx : 01 04 08 b5 00 00 00 18 00 00 00 e9 e6

**********************************************2025-12-05 15:19:47.942

TxPackets: 139 2025-12-05 15:19:47.942 | Tx : 01 04 00 17 00 04 41 cd
RxPackets: 138 2025-12-05 15:19:47.942 | Rx : 01 04 08 b6 00 00 00 18 00 00 00 a9 f3
TxPackets: 140 2025-12-05 15:19:49.572 | Tx : 01 04 00 17 00 04 41 cd
RxPackets: 139 2025-12-05 15:19:49.572 | Rx : 01 04 08 b8 00 00 00 18 00 00 00 28 7f

**********************************************2025-12-05 15:19:51.212

TxPackets: 141 2025-12-05 15:19:51.212 | Tx : 01 04 00 17 00 04 41 cd
RxPackets: 140 2025-12-05 15:19:51.212 | Rx : 01 04 08 ba 00 00 00 18 00 00 00 a9 a6
TxPackets: 142 2025-12-05 15:19:52.858 | Tx : 01 04 00 17 00 04 41 cd
RxPackets: 141 2025-12-05 15:19:52.858 | Rx : 01 04 08 bb 00 00 00 18 00 00 00 68 6a

**********************************************2025-12-05 15:19:54.529

TxPackets: 143 2025-12-05 15:19:54.529 | Tx : 01 04 00 17 00 04 41 cd
RxPackets: 142 2025-12-05 15:19:54.529 | Rx : 01 04 08 bd 00 00 00 18 00 00 00 e8 40
TxPackets: 144 2025-12-05 15:19:56.199 | Tx : 01 04 00 17 00 04 41 cd
RxPackets: 143 2025-12-05 15:19:56.199 | Rx : 01 04 08 bf 00 00 00 18 00 00 00 69 99

**********************************************2025-12-05 15:19:57.794

TxPackets: 145 2025-12-05 15:19:57.794 | Tx : 01 04 00 17 00 04 41 cd
RxPackets: 144 2025-12-05 15:19:57.794 | Rx : 01 04 08 c0 00 00 00 18 00 00 00 2e fd
TxPackets: 146 2025-12-05 15:19:59.409 | Tx : 01 04 00 17 00 04 41 cd
RxPackets: 145 2025-12-05 15:19:59.409 | Rx : 01 04 08 c2 00 00 00 18 00 00 00 af 24

**********************************************2025-12-05 15:20:01.050

TxPackets: 147 2025-12-05 15:20:01.050 | Tx : 01 04 00 17 00 04 41 cd
RxPackets: 146 2025-12-05 15:20:01.050 | Rx : 01 04 08 c3 00 00 00 18 00 00 00 6e e8
TxPackets: 148 2025-12-05 15:20:02.699 | Tx : 01 04 00 17 00 04 41 cd
RxPackets: 147 2025-12-05 15:20:02.699 | Rx : 01 04 08 c5 00 00 00 18 00 00 00 ee c2

**********************************************2025-12-05 15:20:04.343

TxPackets: 149 2025-12-05 15:20:04.343 | Tx : 01 04 00 17 00 04 41 cd
RxPackets: 148 2025-12-05 15:20:04.343 | Rx : 01 04 08 c7 00 00 00 18 00 00 00 6f 1b
TxPackets: 150 2025-12-05 15:20:06.027 | Tx : 01 04 00 17 00 04 41 cd
RxPackets: 149 2025-12-05 15:20:06.027 | Rx : 01 04 08 c8 00 00 00 18 00 00 00 2f 5b

**********************************************2025-12-05 15:20:07.666

TxPackets: 151 2025-12-05 15:20:07.666 | Tx : 01 04 00 17 00 04 41 cd
RxPackets: 150 2025-12-05 15:20:07.666 | Rx : 01 04 08 ca 00 00 00 18 00 00 00 ae 82
TxPackets: 152 2025-12-05 15:20:09.335 | Tx : 01 04 00 17 00 04 41 cd
RxPackets: 151 2025-12-05 15:20:09.335 | Rx : 01 04 08 cc 00 00 00 18 00 00 00 2e a8

**********************************************2025-12-05 15:20:10.983

TxPackets: 153 2025-12-05 15:20:10.983 | Tx : 01 04 00 17 00 04 41 cd
RxPackets: 152 2025-12-05 15:20:10.983 | Rx : 01 04 08 cd 00 00 00 18 00 00 00 ef 64
TxPackets: 154 2025-12-05 15:20:12.635 | Tx : 01 04 00 17 00 04 41 cd
RxPackets: 153 2025-12-05 15:20:12.635 | Rx : 01 04 08 cf 00 00 00 18 00 00 00 6e bd

**********************************************2025-12-05 15:20:14.276

TxPackets: 155 2025-12-05 15:20:14.276 | Tx : 01 04 00 17 00 04 41 cd
RxPackets: 154 2025-12-05 15:20:14.276 | Rx : 01 04 08 d1 00 00 00 18 00 00 00 ee 3d
TxPackets: 156 2025-12-05 15:20:15.910 | Tx : 01 04 00 17 00 04 41 cd
RxPackets: 155 2025-12-05 15:20:15.910 | Rx : 01 04 08 d2 00 00 00 18 00 00 00 ae 28

**********************************************2025-12-05 15:20:17.602

TxPackets: 157 2025-12-05 15:20:17.602 | Tx : 01 04 00 17 00 04 41 cd
RxPackets: 156 2025-12-05 15:20:17.602 | Rx : 01 04 08 d4 00 00 00 18 00 00 00 2e 02
TxPackets: 158 2025-12-05 15:20:19.318 | Tx : 01 04 00 17 00 04 41 cd
RxPackets: 157 2025-12-05 15:20:19.318 | Rx : 01 04 08 d6 00 00 00 18 00 00 00 af db

**********************************************2025-12-05 15:20:20.916

TxPackets: 159 2025-12-05 15:20:20.916 | Tx : 01 04 00 17 00 04 41 cd
RxPackets: 158 2025-12-05 15:20:20.916 | Rx : 01 04 08 d7 00 00 00 18 00 00 00 6e 17
TxPackets: 160 2025-12-05 15:20:22.512 | Tx : 01 04 00 17 00 04 41 cd
RxPackets: 159 2025-12-05 15:20:22.512 | Rx : 01 04 08 d9 00 00 00 18 00 00 00 ef 9b

**********************************************2025-12-05 15:20:23.699

TxPackets: 161 2025-12-05 15:20:23.699 | Tx : 01 04 00 17 00 04 41 cd
RxPackets: 160 2025-12-05 15:20:23.699 | Rx : 01 04 08 da 00 00 00 18 00 00 00 af 8e
TxPackets: 162 2025-12-05 15:20:24.718 | Tx : 01 04 00 17 00 04 41 cd
RxPackets: 161 2025-12-05 15:20:24.718 | Rx : 01 04 08 db 00 00 00 18 00 00 00 6e 42

**********************************************2025-12-05 15:20:25.747

TxPackets: 163 2025-12-05 15:20:25.747 | Tx : 01 04 00 17 00 04 41 cd
RxPackets: 162 2025-12-05 15:20:25.747 | Rx : 01 04 08 dc 00 00 00 18 00 00 00 2f a4
TxPackets: 164 2025-12-05 15:20:26.781 | Tx : 01 04 00 17 00 04 41 cd
RxPackets: 163 2025-12-05 15:20:26.781 | Rx : 01 04 08 dd 00 00 00 18 00 00 00 ee 68

**********************************************2025-12-05 15:20:27.799

TxPackets: 165 2025-12-05 15:20:27.799 | Tx : 01 04 00 17 00 04 41 cd
RxPackets: 164 2025-12-05 15:20:27.799 | Rx : 01 04 08 de 00 00 00 18 00 00 00 ae 7d
TxPackets: 166 2025-12-05 15:20:28.817 | Tx : 01 04 00 17 00 04 41 cd
RxPackets: 165 2025-12-05 15:20:28.817 | Rx : 01 04 08 df 00 00 00 18 00 00 00 6f b1

**********************************************2025-12-05 15:20:29.850

TxPackets: 167 2025-12-05 15:20:29.850 | Tx : 01 04 00 17 00 04 41 cd
RxPackets: 166 2025-12-05 15:20:29.850 | Rx : 01 04 08 e0 00 00 00 18 00 00 00 2c e5
TxPackets: 168 2025-12-05 15:20:30.880 | Tx : 01 04 00 17 00 04 41 cd
RxPackets: 167 2025-12-05 15:20:30.880 | Rx : 01 04 08 e1 00 00 00 18 00 00 00 ed 29

**********************************************2025-12-05 15:20:31.898

TxPackets: 169 2025-12-05 15:20:31.898 | Tx : 01 04 00 17 00 04 41 cd
RxPackets: 168 2025-12-05 15:20:31.898 | Rx : 01 04 08 e2 00 00 00 18 00 00 00 ad 3c
TxPackets: 170 2025-12-05 15:20:32.927 | Tx : 01 04 00 17 00 04 41 cd
RxPackets: 169 2025-12-05 15:20:32.927 | Rx : 01 04 08 e3 00 00 00 18 00 00 00 6c f0

**********************************************2025-12-05 15:20:33.949

TxPackets: 171 2025-12-05 15:20:33.949 | Tx : 01 04 00 17 00 04 41 cd
RxPackets: 170 2025-12-05 15:20:33.949 | Rx : 01 04 08 e4 00 00 00 18 00 00 00 2d 16
TxPackets: 172 2025-12-05 15:20:34.990 | Tx : 01 04 00 17 00 04 41 cd
RxPackets: 171 2025-12-05 15:20:34.990 | Rx : 01 04 08 e5 00 00 00 18 00 00 00 ec da

**********************************************2025-12-05 15:20:36.008

TxPackets: 173 2025-12-05 15:20:36.007 | Tx : 01 04 00 17 00 04 41 cd
RxPackets: 172 2025-12-05 15:20:36.008 | Rx : 01 04 08 e6 00 00 00 18 00 00 00 ac cf
TxPackets: 174 2025-12-05 15:20:37.039 | Tx : 01 04 00 17 00 04 41 cd
RxPackets: 173 2025-12-05 15:20:37.039 | Rx : 01 04 08 e7 00 00 00 18 00 00 00 6d 03

**********************************************2025-12-05 15:20:38.070

TxPackets: 175 2025-12-05 15:20:38.070 | Tx : 01 04 00 17 00 04 41 cd
RxPackets: 174 2025-12-05 15:20:38.070 | Rx : 01 04 08 e8 00 00 00 18 00 00 00 2d 43
TxPackets: 176 2025-12-05 15:20:39.108 | Tx : 01 04 00 17 00 04 41 cd
RxPackets: 175 2025-12-05 15:20:39.108 | Rx : 01 04 08 e9 00 00 00 18 00 00 00 ec 8f

**********************************************2025-12-05 15:20:40.127

TxPackets: 177 2025-12-05 15:20:40.127 | Tx : 01 04 00 17 00 04 41 cd
RxPackets: 176 2025-12-05 15:20:40.127 | Rx : 01 04 08 ea 00 00 00 18 00 00 00 ac 9a
TxPackets: 178 2025-12-05 15:20:41.268 | Tx : 01 04 00 17 00 04 41 cd
RxPackets: 177 2025-12-05 15:20:41.268 | Rx : 01 04 08 ec 00 00 00 18 00 00 00 2c b0

**********************************************2025-12-05 15:20:42.307

TxPackets: 179 2025-12-05 15:20:42.307 | Tx : 01 04 00 17 00 04 41 cd
RxPackets: 178 2025-12-05 15:20:42.307 | Rx : 01 04 08 ed 00 00 00 18 00 00 00 ed 7c
TxPackets: 180 2025-12-05 15:20:43.347 | Tx : 01 04 00 17 00 04 41 cd
RxPackets: 179 2025-12-05 15:20:43.347 | Rx : 01 04 08 ee 00 00 00 18 00 00 00 ad 69

**********************************************2025-12-05 15:20:44.379

TxPackets: 181 2025-12-05 15:20:44.379 | Tx : 01 04 00 17 00 04 41 cd
RxPackets: 180 2025-12-05 15:20:44.379 | Rx : 01 04 08 ef 00 00 00 18 00 00 00 6c a5
TxPackets: 182 2025-12-05 15:20:45.415 | Tx : 01 04 00 17 00 04 41 cd
RxPackets: 181 2025-12-05 15:20:45.415 | Rx : 01 04 08 f0 00 00 00 18 00 00 00 2d e9

**********************************************2025-12-05 15:20:46.448

TxPackets: 183 2025-12-05 15:20:46.448 | Tx : 01 04 00 17 00 04 41 cd
RxPackets: 182 2025-12-05 15:20:46.448 | Rx : 01 04 08 f1 00 00 00 18 00 00 00 ec 25
TxPackets: 184 2025-12-05 15:20:47.748 | Tx : 01 04 00 17 00 04 41 cd
RxPackets: 183 2025-12-05 15:20:47.748 | Rx : 01 04 08 f2 00 00 00 18 00 00 00 ac 30

**********************************************2025-12-05 15:20:49.413

TxPackets: 185 2025-12-05 15:20:49.413 | Tx : 01 04 00 17 00 04 41 cd
RxPackets: 184 2025-12-05 15:20:49.413 | Rx : 01 04 08 f4 00 00 00 18 00 00 00 2c 1a
TxPackets: 186 2025-12-05 15:20:51.054 | Tx : 01 04 00 17 00 04 41 cd
RxPackets: 185 2025-12-05 15:20:51.054 | Rx : 01 04 08 f5 00 00 00 18 00 00 00 ed d6

**********************************************2025-12-05 15:20:52.686

TxPackets: 187 2025-12-05 15:20:52.686 | Tx : 01 04 00 17 00 04 41 cd
RxPackets: 186 2025-12-05 15:20:52.686 | Rx : 01 04 08 f7 00 00 00 18 00 00 00 6c 0f
TxPackets: 188 2025-12-05 15:20:54.323 | Tx : 01 04 00 17 00 04 41 cd
RxPackets: 187 2025-12-05 15:20:54.323 | Rx : 01 04 08 f9 00 00 00 18 00 00 00 ed 83

**********************************************2025-12-05 15:20:55.932

TxPackets: 189 2025-12-05 15:20:55.932 | Tx : 01 04 00 17 00 04 41 cd
RxPackets: 188 2025-12-05 15:20:55.932 | Rx : 01 04 08 fa 00 00 00 18 00 00 00 ad 96
TxPackets: 190 2025-12-05 15:20:57.587 | Tx : 01 04 00 17 00 04 41 cd
RxPackets: 189 2025-12-05 15:20:57.587 | Rx : 01 04 08 fc 00 00 00 18 00 00 00 2d bc

**********************************************2025-12-05 15:20:59.210

TxPackets: 191 2025-12-05 15:20:59.210 | Tx : 01 04 00 17 00 04 41 cd
RxPackets: 190 2025-12-05 15:20:59.210 | Rx : 01 04 08 fd 00 00 00 18 00 00 00 ec 70
TxPackets: 192 2025-12-05 15:21:00.848 | Tx : 01 04 00 17 00 04 41 cd
RxPackets: 191 2025-12-05 15:21:00.848 | Rx : 01 04 08 ff 00 00 00 18 00 00 00 6d a9

**********************************************2025-12-05 15:21:02.490

TxPackets: 193 2025-12-05 15:21:02.490 | Tx : 01 04 00 17 00 04 41 cd
RxPackets: 192 2025-12-05 15:21:02.490 | Rx : 01 04 08 01 01 00 00 18 00 00 00 f3 a1
TxPackets: 194 2025-12-05 15:21:04.115 | Tx : 01 04 00 17 00 04 41 cd
RxPackets: 193 2025-12-05 15:21:04.115 | Rx : 01 04 08 02 01 00 00 18 00 00 00 b3 b4

**********************************************2025-12-05 15:21:05.742

TxPackets: 195 2025-12-05 15:21:05.742 | Tx : 01 04 00 17 00 04 41 cd
RxPackets: 194 2025-12-05 15:21:05.742 | Rx : 01 04 08 04 01 00 00 18 00 00 00 33 9e

**********************************************2025-12-05 15:30:30.117

TxPackets: 1 2025-12-05 15:30:30.117 | Tx : 01 04 00 17 00 04 41 cd
RxPackets: 1 2025-12-05 15:30:30.117 | Rx : 01 04 08 37 03 00 00 18 00 00 00 53 5f
TxPackets: 2 2025-12-05 15:30:30.635 | Tx : 01 04 00 17 00 04 41 cd
RxPackets: 2 2025-12-05 15:30:30.635 | Rx : 01 04 08 38 03 00 00 18 00 00 00 13 1f

**********************************************2025-12-05 15:30:31.155

TxPackets: 3 2025-12-05 15:30:31.155 | Tx : 01 04 00 17 00 04 41 cd
RxPackets: 3 2025-12-05 15:30:31.155 | Rx : 01 04 08 38 03 00 00 18 00 00 00 13 1f
TxPackets: 4 2025-12-05 15:30:31.686 | Tx : 01 04 00 17 00 04 41 cd
RxPackets: 4 2025-12-05 15:30:31.686 | Rx : 01 04 08 39 03 00 00 18 00 00 00 d2 d3

**********************************************2025-12-05 15:30:32.215

TxPackets: 5 2025-12-05 15:30:32.215 | Tx : 01 04 00 17 00 04 41 cd
RxPackets: 5 2025-12-05 15:30:32.215 | Rx : 01 04 08 39 03 00 00 18 00 00 00 d2 d3
TxPackets: 6 2025-12-05 15:30:32.735 | Tx : 01 04 00 17 00 04 41 cd
RxPackets: 6 2025-12-05 15:30:32.735 | Rx : 01 04 08 3a 03 00 00 18 00 00 00 92 c6

**********************************************2025-12-05 15:30:33.255

TxPackets: 7 2025-12-05 15:30:33.255 | Tx : 01 04 00 17 00 04 41 cd
RxPackets: 7 2025-12-05 15:30:33.255 | Rx : 01 04 08 3a 03 00 00 18 00 00 00 92 c6
TxPackets: 8 2025-12-05 15:30:33.775 | Tx : 01 04 00 17 00 04 41 cd
RxPackets: 8 2025-12-05 15:30:33.775 | Rx : 01 04 08 3b 03 00 00 18 00 00 00 53 0a

**********************************************2025-12-05 15:30:34.295

TxPackets: 9 2025-12-05 15:30:34.295 | Tx : 01 04 00 17 00 04 41 cd
RxPackets: 9 2025-12-05 15:30:34.295 | Rx : 01 04 08 3b 03 00 00 18 00 00 00 53 0a
TxPackets: 10 2025-12-05 15:30:34.816 | Tx : 01 04 00 17 00 04 41 cd
RxPackets: 10 2025-12-05 15:30:34.816 | Rx : 01 04 08 3c 03 00 00 18 00 00 00 12 ec

**********************************************2025-12-05 15:30:35.345

TxPackets: 11 2025-12-05 15:30:35.345 | Tx : 01 04 00 17 00 04 41 cd
RxPackets: 11 2025-12-05 15:30:35.345 | Rx : 01 04 08 3c 03 00 00 18 00 00 00 12 ec
TxPackets: 12 2025-12-05 15:30:35.865 | Tx : 01 04 00 17 00 04 41 cd
RxPackets: 12 2025-12-05 15:30:35.865 | Rx : 01 04 08 3d 03 00 00 18 00 00 00 d3 20

**********************************************2025-12-05 15:30:36.385

TxPackets: 13 2025-12-05 15:30:36.385 | Tx : 01 04 00 17 00 04 41 cd
RxPackets: 13 2025-12-05 15:30:36.385 | Rx : 01 04 08 3d 03 00 00 18 00 00 00 d3 20
TxPackets: 14 2025-12-05 15:30:36.906 | Tx : 01 04 00 17 00 04 41 cd
RxPackets: 14 2025-12-05 15:30:36.906 | Rx : 01 04 08 3e 03 00 00 18 00 00 00 93 35

**********************************************2025-12-05 15:30:37.425

TxPackets: 15 2025-12-05 15:30:37.425 | Tx : 01 04 00 17 00 04 41 cd
RxPackets: 15 2025-12-05 15:30:37.425 | Rx : 01 04 08 3e 03 00 00 18 00 00 00 93 35
TxPackets: 16 2025-12-05 15:30:37.955 | Tx : 01 04 00 17 00 04 41 cd
RxPackets: 16 2025-12-05 15:30:37.955 | Rx : 01 04 08 3f 03 00 00 18 00 00 00 52 f9

**********************************************2025-12-05 15:59:18.067

TxPackets: 6 2025-12-05 15:59:18.067 | Tx : 01 10 00 00 00 02 04 00 00 00 01 00 00 00 02 bf 64
RxPackets: 1 2025-12-05 15:59:18.067 | Rx : 01 10 00 00 00 02 41 c8 01 10 00 00 00 02 41 c8
TxPackets: 7 2025-12-05 15:59:22.066 | Tx : 01 10 00 00 00 02 04 00 00 00 00 00 00 00 00 03 65
RxPackets: 2 2025-12-05 15:59:22.066 | Rx : 01 10 00 00 00 02 41 c8

**********************************************2025-12-05 15:59:35.395

TxPackets: 8 2025-12-05 15:59:35.395 | Tx : 01 10 00 00 00 02 04 00 00 00 12 00 00 00 52 3a 9b
RxPackets: 3 2025-12-05 15:59:35.395 | Rx : 01 10 00 00 00 02 41 c8
TxPackets: 9 2025-12-05 16:00:31.527 | Tx : 01 10 00 0a 00 01 02 00 00 00 0f bb e7
RxPackets: 4 2025-12-05 16:00:31.527 | Rx : 01 10 00 0a 00 01 21 cb

**********************************************2025-12-05 16:01:06.524

TxPackets: 10 2025-12-05 16:01:06.524 | Tx : 01 10 00 0a 00 04 08 00 00 00 01 00 00 00 0b d2 65
RxPackets: 5 2025-12-05 16:01:06.524 | Rx : 01 10 00 0a 00 04 e1 c8
TxPackets: 11 2025-12-05 16:01:36.004 | Tx : 01 10 00 0a 00 04 08 00 00 00 0a 00 00 00 0b 77 a4
RxPackets: 6 2025-12-05 16:01:36.004 | Rx : 01 10 00 0a 00 04 e1 c8

**********************************************2025-12-05 16:02:27.565

TxPackets: 12 2025-12-05 16:02:27.565 | Tx : 01 10 00 0a 00 01 02 00 00 00 01 3a 23
RxPackets: 7 2025-12-05 16:02:27.565 | Rx : 01 10 00 0a 00 01 21 cb
TxPackets: 13 2025-12-05 16:02:33.566 | Tx : 01 10 00 0a 00 01 02 00 01 00 00 aa 23
RxPackets: 8 2025-12-05 16:02:33.566 | Rx : 01 10 00 0a 00 01 21 cb

**********************************************2025-12-05 16:03:02.492

TxPackets: 14 2025-12-05 16:03:02.492 | Tx : 01 10 00 0a 00 01 02 00 00 00 20 fa 3b
RxPackets: 9 2025-12-05 16:03:02.492 | Rx : 01 10 00 0a 00 01 21 cb
TxPackets: 15 2025-12-05 16:03:04.275 | Tx : 01 10 00 0a 00 01 02 00 00 00 00 fb e3
RxPackets: 10 2025-12-05 16:03:04.275 | Rx : 01 10 00 0a 00 01 21 cb

**********************************************2025-12-05 16:03:04.872

